***BUSMASTER Ver 3.2.2***
***PROTOCOL CAN***
***NOTE: PLEASE DO NOT EDIT THIS DOCUMENT***
***[START LOGGING SESSION]***
***START DATE AND TIME 26:9:2024 12:46:54:554***
***HEX***
***SYSTEM MODE***
***START CHANNEL BAUD RATE***
***CHANNEL 1 - PCAN-USB Driver Id 16 - 500000 bps***
***END CHANNEL BAUD RATE***
***<Time><Tx/Rx><Channel><CAN ID><Type><DLC><DataBytes>***
12:46:54:6544 Rx 1 0x777 s 8 00 00 00 00 E1 00 00 01 
12:46:54:6547 Rx 1 0x778 s 8 3B 64 0D 00 04 C3 22 01 
12:46:54:7544 Rx 1 0x779 s 8 00 01 02 5E 07 00 00 00 
12:46:54:7548 Rx 1 0x77A s 8 00 00 00 00 00 00 00 00 
12:46:54:8544 Rx 1 0x777 s 8 00 00 00 00 E1 00 00 01 
12:46:54:8547 Rx 1 0x778 s 8 3B 64 0E 00 14 C3 22 01 
12:46:54:9544 Rx 1 0x779 s 8 00 01 02 5E 07 00 00 00 
12:46:54:9547 Rx 1 0x77A s 8 00 00 00 00 00 00 00 00 
12:46:55:0544 Rx 1 0x777 s 8 00 00 00 00 E1 00 00 01 
12:46:55:0547 Rx 1 0x778 s 8 3B 64 0E 00 04 C3 22 01 
12:46:55:1544 Rx 1 0x779 s 8 00 01 02 5E 07 00 00 00 
12:46:55:1548 Rx 1 0x77A s 8 00 00 00 00 00 00 00 00 
12:46:55:2545 Rx 1 0x777 s 8 00 00 00 00 E1 00 00 01 
12:46:55:2548 Rx 1 0x778 s 8 3B 64 0E 00 14 C3 22 01 
12:46:55:3544 Rx 1 0x779 s 8 00 01 02 5E 07 00 00 00 
12:46:55:3547 Rx 1 0x77A s 8 00 00 00 00 00 00 00 00 
12:46:55:4545 Rx 1 0x777 s 8 00 00 00 00 E1 00 00 01 
12:46:55:4548 Rx 1 0x778 s 8 3B 64 0E 00 14 C3 22 01 
12:46:55:5544 Rx 1 0x779 s 8 00 01 02 5E 07 00 00 00 
12:46:55:5548 Rx 1 0x77A s 8 00 00 00 00 00 00 00 00 
12:46:55:6545 Rx 1 0x777 s 8 00 00 00 00 E1 00 00 01 
12:46:55:6548 Rx 1 0x778 s 8 3B 64 0D 00 14 C3 22 01 
12:46:55:7545 Rx 1 0x779 s 8 00 01 02 5E 07 00 00 00 
12:46:55:7548 Rx 1 0x77A s 8 00 00 00 00 00 00 00 00 
12:46:55:8545 Rx 1 0x777 s 8 00 00 00 00 E1 00 00 01 
12:46:55:8548 Rx 1 0x778 s 8 3B 64 0D 00 14 C3 22 01 
12:46:55:9544 Rx 1 0x779 s 8 00 01 02 5E 07 00 00 00 
12:46:55:9548 Rx 1 0x77A s 8 00 00 00 00 00 00 00 00 
12:46:56:0544 Rx 1 0x777 s 8 00 00 00 00 E1 00 00 01 
12:46:56:0548 Rx 1 0x778 s 8 3B 64 0E 00 14 C3 22 01 
12:46:56:1545 Rx 1 0x779 s 8 00 01 02 5E 07 00 00 00 
12:46:56:1547 Rx 1 0x77A s 8 00 00 00 00 00 00 00 00 
12:46:56:2545 Rx 1 0x777 s 8 00 00 00 00 E1 00 00 01 
12:46:56:2548 Rx 1 0x778 s 8 3B 64 0C 00 14 C3 22 01 
12:46:56:3545 Rx 1 0x779 s 8 00 01 02 5E 07 00 00 00 
12:46:56:3549 Rx 1 0x77A s 8 00 00 00 00 00 00 00 00 
12:46:56:4546 Rx 1 0x777 s 8 00 00 00 00 E1 00 00 01 
12:46:56:4549 Rx 1 0x778 s 8 3B 64 0D 00 14 C3 22 01 
12:46:56:5546 Rx 1 0x779 s 8 00 01 02 5E 07 00 00 00 
12:46:56:5549 Rx 1 0x77A s 8 00 00 00 00 00 00 00 00 
12:46:56:6546 Rx 1 0x777 s 8 00 00 00 00 E1 00 00 01 
12:46:56:6548 Rx 1 0x778 s 8 3B 64 0E 00 14 C3 22 01 
12:46:56:7546 Rx 1 0x779 s 8 00 01 02 5E 07 00 00 00 
12:46:56:7548 Rx 1 0x77A s 8 00 00 00 00 00 00 00 00 
12:46:56:8546 Rx 1 0x777 s 8 00 00 00 00 E1 00 00 01 
12:46:56:8548 Rx 1 0x778 s 8 3B 64 0D 00 14 C3 22 01 
12:46:56:9546 Rx 1 0x779 s 8 00 01 02 5E 07 00 00 00 
12:46:56:9548 Rx 1 0x77A s 8 00 00 00 00 00 00 00 00 
12:46:57:0546 Rx 1 0x777 s 8 00 00 00 00 E1 00 00 01 
12:46:57:0549 Rx 1 0x778 s 8 3B 64 0D 00 14 C3 22 01 
12:46:57:1546 Rx 1 0x779 s 8 00 01 02 5E 07 00 00 00 
12:46:57:1548 Rx 1 0x77A s 8 00 00 00 00 00 00 00 00 
12:46:57:2544 Rx 1 0x777 s 8 00 00 00 00 E1 00 00 01 
12:46:57:2547 Rx 1 0x778 s 8 3B 64 0C 00 04 C3 22 01 
12:46:57:3545 Rx 1 0x779 s 8 00 01 02 5E 07 00 00 00 
12:46:57:3547 Rx 1 0x77A s 8 00 00 00 00 00 00 00 00 
12:46:57:4545 Rx 1 0x777 s 8 00 00 00 00 E1 00 00 01 
12:46:57:4547 Rx 1 0x778 s 8 3B 64 0C 00 14 C3 22 01 
12:46:57:5545 Rx 1 0x779 s 8 00 01 02 5E 07 00 00 00 
12:46:57:5547 Rx 1 0x77A s 8 00 00 00 00 00 00 00 00 
12:46:57:6544 Rx 1 0x777 s 8 00 00 00 00 E1 00 00 01 
12:46:57:6547 Rx 1 0x778 s 8 3B 64 0D 00 14 C3 22 01 
12:46:57:7544 Rx 1 0x779 s 8 00 01 02 5E 07 00 00 00 
12:46:57:7547 Rx 1 0x77A s 8 00 00 00 00 00 00 00 00 
12:46:57:8544 Rx 1 0x777 s 8 00 00 00 00 E1 00 00 01 
12:46:57:8547 Rx 1 0x778 s 8 3B 64 0D 00 14 C3 22 01 
12:46:57:9545 Rx 1 0x779 s 8 00 01 02 5E 07 00 00 00 
12:46:57:9547 Rx 1 0x77A s 8 00 00 00 00 00 00 00 00 
12:46:58:0545 Rx 1 0x777 s 8 00 00 00 00 E1 00 00 01 
12:46:58:0547 Rx 1 0x778 s 8 3B 64 0D 00 04 C3 22 01 
12:46:58:1544 Rx 1 0x779 s 8 00 01 02 5E 07 00 00 00 
12:46:58:1548 Rx 1 0x77A s 8 00 00 00 00 00 00 00 00 
12:46:58:2546 Rx 1 0x777 s 8 00 00 00 00 E1 00 00 01 
12:46:58:2548 Rx 1 0x778 s 8 3B 64 0D 00 14 C3 22 01 
12:46:58:3545 Rx 1 0x779 s 8 00 01 02 5E 07 00 00 00 
12:46:58:3547 Rx 1 0x77A s 8 00 00 00 00 00 00 00 00 
12:46:58:4546 Rx 1 0x777 s 8 00 00 00 00 E1 00 00 01 
12:46:58:4549 Rx 1 0x778 s 8 3B 64 0E 00 14 C3 22 01 
12:46:58:5545 Rx 1 0x779 s 8 00 01 02 5E 07 00 00 00 
12:46:58:5547 Rx 1 0x77A s 8 00 00 00 00 00 00 00 00 
12:46:58:6546 Rx 1 0x777 s 8 00 00 00 00 E1 00 00 01 
12:46:58:6548 Rx 1 0x778 s 8 3B 64 0E 00 14 C3 22 01 
12:46:58:7544 Rx 1 0x779 s 8 00 01 02 5E 07 00 00 00 
12:46:58:7548 Rx 1 0x77A s 8 00 00 00 00 00 00 00 00 
12:46:58:8546 Rx 1 0x777 s 8 00 00 D8 FF E1 00 00 01 
12:46:58:8549 Rx 1 0x778 s 8 3B 64 0E 00 14 C3 22 01 
12:46:58:9544 Rx 1 0x779 s 8 00 01 02 5E 07 00 00 00 
12:46:58:9548 Rx 1 0x77A s 8 00 00 00 00 00 00 00 00 
12:46:59:0546 Rx 1 0x777 s 8 00 00 FC FF E1 00 00 01 
12:46:59:0548 Rx 1 0x778 s 8 3B 64 0E 00 14 C3 22 01 
12:46:59:1545 Rx 1 0x779 s 8 00 01 02 5E 07 00 00 00 
12:46:59:1548 Rx 1 0x77A s 8 00 00 00 00 00 00 00 00 
12:46:59:2545 Rx 1 0x777 s 8 00 00 F0 FF E1 00 00 01 
12:46:59:2548 Rx 1 0x778 s 8 3B 64 0E 00 14 C3 22 01 
12:46:59:3544 Rx 1 0x779 s 8 00 01 02 5E 07 00 00 00 
12:46:59:3548 Rx 1 0x77A s 8 00 00 00 00 00 00 00 00 
12:46:59:4545 Rx 1 0x777 s 8 00 00 FE FF E1 00 00 01 
12:46:59:4548 Rx 1 0x778 s 8 3B 64 0E 00 04 C3 22 01 
12:46:59:5544 Rx 1 0x779 s 8 00 01 02 5E 07 00 00 00 
12:46:59:5548 Rx 1 0x77A s 8 00 00 00 00 00 00 00 00 
12:46:59:6545 Rx 1 0x777 s 8 00 00 00 00 E1 00 00 01 
12:46:59:6548 Rx 1 0x778 s 8 3B 64 0F 00 04 C3 22 01 
12:46:59:7545 Rx 1 0x779 s 8 00 01 02 5E 07 00 00 00 
12:46:59:7548 Rx 1 0x77A s 8 00 00 00 00 00 00 00 00 
12:46:59:8546 Rx 1 0x777 s 8 00 00 00 00 E1 00 00 01 
12:46:59:8548 Rx 1 0x778 s 8 3B 64 0E 00 14 C3 22 01 
12:46:59:9544 Rx 1 0x779 s 8 00 01 02 5E 07 00 00 00 
12:46:59:9548 Rx 1 0x77A s 8 00 00 00 00 00 00 00 00 
12:47:00:0545 Rx 1 0x777 s 8 00 00 00 00 E1 00 00 01 
12:47:00:0548 Rx 1 0x778 s 8 3B 64 0F 00 14 C3 22 01 
12:47:00:1545 Rx 1 0x779 s 8 00 01 02 5E 07 00 00 00 
12:47:00:1547 Rx 1 0x77A s 8 00 00 00 00 00 00 00 00 
12:47:00:2545 Rx 1 0x777 s 8 00 00 00 00 E1 00 00 01 
12:47:00:2547 Rx 1 0x778 s 8 3B 64 0F 00 14 C3 22 01 
12:47:00:3545 Rx 1 0x779 s 8 00 01 02 5E 07 00 00 00 
12:47:00:3548 Rx 1 0x77A s 8 00 00 00 00 00 00 00 00 
12:47:00:4545 Rx 1 0x777 s 8 00 00 00 00 E1 00 00 01 
12:47:00:4548 Rx 1 0x778 s 8 3B 64 10 00 04 C3 22 01 
12:47:00:5545 Rx 1 0x779 s 8 00 01 02 5E 07 00 00 00 
12:47:00:5547 Rx 1 0x77A s 8 00 00 00 00 00 00 00 00 
12:47:00:6546 Rx 1 0x777 s 8 00 00 00 00 E1 01 00 01 
12:47:00:6549 Rx 1 0x778 s 8 3B 64 0D 00 14 C3 22 01 
12:47:00:7545 Rx 1 0x779 s 8 00 01 02 5E 07 00 00 00 
12:47:00:7547 Rx 1 0x77A s 8 00 00 00 00 00 00 00 00 
12:47:00:8546 Rx 1 0x777 s 8 00 00 1B 00 E1 04 00 01 
12:47:00:8549 Rx 1 0x778 s 8 3B 64 0C 00 14 C3 22 01 
12:47:00:9545 Rx 1 0x779 s 8 00 01 02 5E 07 00 00 00 
12:47:00:9547 Rx 1 0x77A s 8 00 00 00 00 00 00 00 00 
12:47:01:0545 Rx 1 0x777 s 8 00 00 35 00 E1 09 00 01 
12:47:01:0548 Rx 1 0x778 s 8 3B 64 09 00 24 C3 22 01 
12:47:01:1545 Rx 1 0x779 s 8 00 01 02 5E 07 00 00 00 
12:47:01:1547 Rx 1 0x77A s 8 00 00 00 00 00 00 00 00 
12:47:01:2545 Rx 1 0x777 s 8 13 00 3C 00 E1 1A 00 01 
12:47:01:2548 Rx 1 0x778 s 8 3B 64 01 00 E4 C2 22 01 
12:47:01:3545 Rx 1 0x779 s 8 00 01 02 5E 07 00 00 00 
12:47:01:3547 Rx 1 0x77A s 8 00 00 00 00 00 00 00 00 
12:47:01:4544 Rx 1 0x777 s 8 57 00 9F 00 E1 1F 00 01 
12:47:01:4547 Rx 1 0x778 s 8 3B 64 20 00 A5 C2 22 01 
12:47:01:5544 Rx 1 0x779 s 8 00 01 02 5E 07 00 00 00 
12:47:01:5547 Rx 1 0x77A s 8 00 00 00 00 00 00 00 00 
12:47:01:6544 Rx 1 0x777 s 8 E2 00 2E 01 E1 10 00 01 
12:47:01:6547 Rx 1 0x778 s 8 3B 64 B0 00 C6 C1 22 01 
12:47:01:7544 Rx 1 0x779 s 8 00 01 02 5E 07 00 00 00 
12:47:01:7547 Rx 1 0x77A s 8 00 00 00 00 00 00 00 00 
12:47:01:8544 Rx 1 0x777 s 8 AE 01 01 02 E1 0A 00 01 
12:47:01:8547 Rx 1 0x778 s 8 3B 64 37 01 79 C0 22 01 
12:47:01:9544 Rx 1 0x779 s 8 00 01 02 5E 07 00 00 00 
12:47:01:9547 Rx 1 0x77A s 8 00 00 00 00 00 00 00 00 
12:47:02:0544 Rx 1 0x777 s 8 19 02 0E 03 E1 0D 00 01 
12:47:02:0547 Rx 1 0x778 s 8 3B 64 8B 01 EA BF 22 01 
12:47:02:1544 Rx 1 0x779 s 8 02 01 02 5E 07 00 00 00 
12:47:02:1547 Rx 1 0x77A s 8 00 00 00 00 00 00 00 00 
12:47:02:2545 Rx 1 0x777 s 8 50 03 1D 04 E1 07 00 01 
12:47:02:2548 Rx 1 0x778 s 8 3B 64 E1 02 0A C0 22 01 
12:47:02:3545 Rx 1 0x779 s 8 03 01 02 5E 07 00 00 00 
12:47:02:3547 Rx 1 0x77A s 8 00 00 00 00 00 00 00 00 
12:47:02:4546 Rx 1 0x777 s 8 8C 03 2D 05 E1 00 00 01 
12:47:02:4549 Rx 1 0x778 s 8 3B 64 56 03 59 C0 22 01 
12:47:02:5544 Rx 1 0x779 s 8 03 01 02 5E 07 00 00 00 
12:47:02:5548 Rx 1 0x77A s 8 00 00 00 00 00 00 00 00 
12:47:02:6545 Rx 1 0x777 s 8 5A 03 1B 06 E2 01 00 01 
12:47:02:6548 Rx 1 0x778 s 8 3B 64 31 03 BB BF 22 01 
12:47:02:7545 Rx 1 0x779 s 8 04 01 02 5E 07 00 00 00 
12:47:02:7548 Rx 1 0x77A s 8 00 00 00 00 00 00 00 00 
12:47:02:8546 Rx 1 0x777 s 8 8D 03 04 07 E2 00 00 01 
12:47:02:8548 Rx 1 0x778 s 8 3B 64 36 03 6B BF 22 01 
12:47:02:9544 Rx 1 0x779 s 8 05 01 02 5E 07 00 00 00 
12:47:02:9548 Rx 1 0x77A s 8 00 00 00 00 00 00 00 00 
12:47:03:0546 Rx 1 0x777 s 8 95 03 DE 07 E2 00 00 01 
12:47:03:0548 Rx 1 0x778 s 8 3B 64 34 03 7B BF 22 01 
12:47:03:1545 Rx 1 0x779 s 8 05 01 02 5E 07 00 00 00 
12:47:03:1548 Rx 1 0x77A s 8 00 00 00 00 00 00 00 00 
12:47:03:2546 Rx 1 0x777 s 8 90 03 A5 08 E2 01 00 01 
12:47:03:2549 Rx 1 0x778 s 8 3B 64 35 03 5C BF 22 01 
12:47:03:3546 Rx 1 0x779 s 8 06 01 02 5E 07 00 00 00 
12:47:03:3549 Rx 1 0x77A s 8 00 00 00 00 00 00 00 00 
12:47:03:4547 Rx 1 0x777 s 8 9B 03 8A 09 E2 01 00 01 
12:47:03:4549 Rx 1 0x778 s 8 3B 64 3A 03 3C BF 22 01 
12:47:03:5545 Rx 1 0x779 s 8 07 01 02 5E 07 00 00 00 
12:47:03:5549 Rx 1 0x77A s 8 00 00 00 00 00 00 00 00 
12:47:03:6546 Rx 1 0x777 s 8 5F 03 38 0A E2 00 00 01 
12:47:03:6549 Rx 1 0x778 s 8 3B 64 3F 03 6B BF 22 01 
12:47:03:7547 Rx 1 0x779 s 8 07 01 02 5E 07 00 00 00 
12:47:03:7549 Rx 1 0x77A s 8 00 00 00 00 00 00 00 00 
12:47:03:8547 Rx 1 0x777 s 8 67 03 CF 0A E2 01 00 01 
12:47:03:8550 Rx 1 0x778 s 8 3B 64 0F 03 7B BF 22 01 
12:47:03:9545 Rx 1 0x779 s 8 08 01 02 5E 07 00 00 00 
12:47:03:9549 Rx 1 0x77A s 8 00 00 00 00 00 00 00 00 
12:47:04:0547 Rx 1 0x777 s 8 5A 03 5F 0B E2 02 00 01 
12:47:04:0549 Rx 1 0x778 s 8 3B 64 14 03 0C BF 22 01 
12:47:04:1546 Rx 1 0x779 s 8 08 01 02 5E 07 00 00 00 
12:47:04:1549 Rx 1 0x77A s 8 00 00 00 00 00 00 00 00 
12:47:04:2545 Rx 1 0x777 s 8 4A 03 E6 0B E2 01 00 01 
12:47:04:2548 Rx 1 0x778 s 8 3B 64 1D 03 2C BF 22 01 
12:47:04:3545 Rx 1 0x779 s 8 08 01 02 5E 07 00 00 00 
12:47:04:3548 Rx 1 0x77A s 8 00 00 00 00 00 00 00 00 
12:47:04:4545 Rx 1 0x777 s 8 23 03 63 0C E2 02 00 01 
12:47:04:4548 Rx 1 0x778 s 8 3B 64 2A 03 4C BF 22 01 
12:47:04:5545 Rx 1 0x779 s 8 09 01 02 5E 07 00 00 00 
12:47:04:5548 Rx 1 0x77A s 8 00 00 00 00 00 00 00 00 
12:47:04:6546 Rx 1 0x777 s 8 29 03 F4 0C E2 03 00 01 
12:47:04:6549 Rx 1 0x778 s 8 3B 64 39 03 3E BE 22 01 
12:47:04:7545 Rx 1 0x779 s 8 09 01 02 5E 07 00 00 00 
12:47:04:7548 Rx 1 0x77A s 8 00 00 00 00 00 00 00 00 
12:47:04:8545 Rx 1 0x777 s 8 2D 03 85 0D E2 04 00 01 
12:47:04:8548 Rx 1 0x778 s 8 3B 64 5C 03 2C BF 22 01 
12:47:04:9545 Rx 1 0x779 s 8 0A 01 02 5E 07 00 00 00 
12:47:04:9547 Rx 1 0x77A s 8 00 00 00 00 00 00 00 00 
12:47:05:0545 Rx 1 0x777 s 8 4E 03 02 0E E2 00 00 01 
12:47:05:0548 Rx 1 0x778 s 8 3B 64 73 03 6B BF 22 01 
12:47:05:1545 Rx 1 0x779 s 8 0A 01 02 5E 07 00 00 00 
12:47:05:1548 Rx 1 0x77A s 8 00 00 00 00 00 00 00 00 
12:47:05:2545 Rx 1 0x777 s 8 F6 02 26 0E E2 03 00 01 
12:47:05:2548 Rx 1 0x778 s 8 3B 64 1F 03 B7 C1 22 01 
12:47:05:3545 Rx 1 0x779 s 8 0A 01 02 5E 07 00 00 00 
12:47:05:3547 Rx 1 0x77A s 8 00 00 00 00 00 00 00 00 
12:47:05:4544 Rx 1 0x777 s 8 50 01 56 0D E2 01 00 01 
12:47:05:4547 Rx 1 0x778 s 8 3B 64 79 01 16 C2 22 01 
12:47:05:5544 Rx 1 0x779 s 8 0A 01 02 5E 07 00 00 00 
12:47:05:5547 Rx 1 0x77A s 8 00 00 00 00 00 00 00 00 
12:47:05:6546 Rx 1 0x777 s 8 7E 00 7F 0D E2 00 00 01 
12:47:05:6548 Rx 1 0x778 s 8 3B 64 6D 00 36 C2 22 01 
12:47:05:7544 Rx 1 0x779 s 8 0A 01 02 5E 07 00 00 00 
12:47:05:7548 Rx 1 0x77A s 8 00 00 00 00 00 00 00 00 
12:47:05:8544 Rx 1 0x777 s 8 4C 00 33 0D E2 00 00 01 
12:47:05:8547 Rx 1 0x778 s 8 3B 64 3E 00 45 C2 22 01 
12:47:05:9545 Rx 1 0x779 s 8 09 01 02 5E 07 00 00 00 
12:47:05:9547 Rx 1 0x77A s 8 00 00 00 00 00 00 00 00 
12:47:06:0544 Rx 1 0x777 s 8 11 00 C7 0C E2 00 00 01 
12:47:06:0547 Rx 1 0x778 s 8 3B 64 14 00 55 C2 22 01 
12:47:06:1544 Rx 1 0x779 s 8 09 01 02 5E 07 00 00 00 
12:47:06:1548 Rx 1 0x77A s 8 00 00 00 00 00 00 00 00 
12:47:06:2545 Rx 1 0x777 s 8 06 00 3E 0C E2 00 00 01 
12:47:06:2548 Rx 1 0x778 s 8 3B 64 0D 00 55 C2 22 01 
12:47:06:3545 Rx 1 0x779 s 8 09 01 02 5E 07 00 00 00 
12:47:06:3547 Rx 1 0x77A s 8 00 00 01 00 00 00 00 00 
12:47:06:4546 Rx 1 0x777 s 8 F2 FF B8 0B E2 01 00 01 
12:47:06:4549 Rx 1 0x778 s 8 3B 64 0D 00 36 C2 22 01 
12:47:06:5546 Rx 1 0x779 s 8 08 01 02 5E 07 00 00 00 
12:47:06:5548 Rx 1 0x77A s 8 00 00 01 00 00 00 00 00 
12:47:06:6545 Rx 1 0x777 s 8 16 00 53 0B E2 03 00 01 
12:47:06:6548 Rx 1 0x778 s 8 3B 64 1F 00 D6 C1 22 01 
12:47:06:7545 Rx 1 0x779 s 8 08 01 02 5E 07 00 00 00 
12:47:06:7548 Rx 1 0x77A s 8 00 00 00 00 00 00 00 00 
12:47:06:8545 Rx 1 0x777 s 8 2F 00 3E 0B E2 04 00 01 
12:47:06:8548 Rx 1 0x778 s 8 3B 64 27 00 55 C2 22 01 
12:47:06:9546 Rx 1 0x779 s 8 08 01 02 5E 07 00 00 00 
12:47:06:9548 Rx 1 0x77A s 8 00 00 00 00 00 00 00 00 
12:47:07:0546 Rx 1 0x777 s 8 E6 00 CC 0B E2 02 00 01 
12:47:07:0548 Rx 1 0x778 s 8 3B 64 CA 00 D6 C1 22 01 
12:47:07:1545 Rx 1 0x779 s 8 08 01 02 5E 07 00 00 00 
12:47:07:1548 Rx 1 0x77A s 8 00 00 00 00 00 00 00 00 
12:47:07:2544 Rx 1 0x777 s 8 E0 00 D4 0A E2 00 00 01 
12:47:07:2547 Rx 1 0x778 s 8 3B 64 E5 00 C6 C1 22 01 
12:47:07:3545 Rx 1 0x779 s 8 08 01 02 5E 07 00 00 00 
12:47:07:3548 Rx 1 0x77A s 8 00 00 00 00 00 00 00 00 
12:47:07:4545 Rx 1 0x777 s 8 D0 00 91 0A E2 01 00 01 
12:47:07:4548 Rx 1 0x778 s 8 3B 64 00 01 97 C1 22 01 
12:47:07:5545 Rx 1 0x779 s 8 08 01 02 5E 07 00 00 00 
12:47:07:5548 Rx 1 0x77A s 8 00 00 00 00 00 00 00 00 
12:47:07:6545 Rx 1 0x777 s 8 8D 00 CE 09 E2 00 00 01 
12:47:07:6548 Rx 1 0x778 s 8 3B 64 C1 00 36 C2 22 01 
12:47:07:7545 Rx 1 0x779 s 8 06 01 02 5E 07 00 00 00 
12:47:07:7547 Rx 1 0x77A s 8 00 00 00 00 00 00 00 00 
12:47:07:8545 Rx 1 0x777 s 8 56 00 3C 09 E2 00 00 01 
12:47:07:8548 Rx 1 0x778 s 8 3B 64 75 00 55 C2 22 01 
12:47:07:9545 Rx 1 0x779 s 8 07 01 02 5E 07 00 00 00 
12:47:07:9548 Rx 1 0x77A s 8 00 00 00 00 00 00 00 00 
12:47:08:0545 Rx 1 0x777 s 8 20 00 7A 09 E2 00 00 01 
12:47:08:0548 Rx 1 0x778 s 8 3B 64 27 00 65 C2 22 01 
12:47:08:1545 Rx 1 0x779 s 8 07 01 02 5E 07 00 00 00 
12:47:08:1547 Rx 1 0x77A s 8 00 00 00 00 00 00 00 00 
12:47:08:2546 Rx 1 0x777 s 8 0C 00 70 09 E2 00 00 01 
12:47:08:2549 Rx 1 0x778 s 8 3B 64 13 00 65 C2 22 01 
12:47:08:3545 Rx 1 0x779 s 8 07 01 02 5E 07 00 00 00 
12:47:08:3548 Rx 1 0x77A s 8 00 00 00 00 00 00 00 00 
12:47:08:4546 Rx 1 0x777 s 8 04 00 2D 09 E2 00 00 01 
12:47:08:4549 Rx 1 0x778 s 8 3B 64 0D 00 75 C2 22 01 
12:47:08:5545 Rx 1 0x779 s 8 06 01 02 5E 07 00 00 00 
12:47:08:5549 Rx 1 0x77A s 8 00 00 00 00 00 00 00 00 
12:47:08:6546 Rx 1 0x777 s 8 F4 FF F4 08 E2 02 00 01 
12:47:08:6549 Rx 1 0x778 s 8 3B 64 07 00 75 C2 22 01 
12:47:08:7546 Rx 1 0x779 s 8 06 01 02 5E 07 00 00 00 
12:47:08:7549 Rx 1 0x77A s 8 00 00 00 00 00 00 00 00 
12:47:08:8546 Rx 1 0x777 s 8 00 00 9E 08 E2 04 00 01 
12:47:08:8549 Rx 1 0x778 s 8 3B 64 1A 00 55 C2 22 01 
12:47:08:9545 Rx 1 0x779 s 8 06 01 02 5E 07 00 00 00 
12:47:08:9548 Rx 1 0x77A s 8 00 00 00 00 00 00 00 00 
12:47:09:0545 Rx 1 0x777 s 8 78 00 A6 09 E2 0A 00 01 
12:47:09:0548 Rx 1 0x778 s 8 3B 64 42 00 26 C2 22 01 
12:47:09:1546 Rx 1 0x779 s 8 06 01 02 5E 07 00 00 00 
12:47:09:1548 Rx 1 0x77A s 8 00 00 00 00 00 00 00 00 
12:47:09:2545 Rx 1 0x777 s 8 20 01 B5 08 E2 15 00 01 
12:47:09:2548 Rx 1 0x778 s 8 3B 64 E5 00 89 C0 22 01 
12:47:09:3545 Rx 1 0x779 s 8 06 01 02 5E 07 00 00 00 
12:47:09:3547 Rx 1 0x77A s 8 00 00 00 00 00 00 00 00 
12:47:09:4546 Rx 1 0x777 s 8 4C 02 B4 08 E2 13 00 01 
12:47:09:4549 Rx 1 0x778 s 8 3B 64 FA 01 EA BF 22 01 
12:47:09:5544 Rx 1 0x779 s 8 06 01 02 5E 07 00 00 00 
12:47:09:5548 Rx 1 0x77A s 8 00 00 00 00 00 00 00 00 
12:47:09:6546 Rx 1 0x777 s 8 12 03 2D 09 E2 0F 00 01 
12:47:09:6548 Rx 1 0x778 s 8 3B 64 B1 02 DD BE 22 01 
12:47:09:7544 Rx 1 0x779 s 8 06 01 02 5E 07 00 00 00 
12:47:09:7548 Rx 1 0x77A s 8 00 00 00 00 00 00 00 00 
12:47:09:8546 Rx 1 0x777 s 8 2B 04 B4 09 E2 02 00 01 
12:47:09:8549 Rx 1 0x778 s 8 3B 64 F4 03 FC BE 22 01 
12:47:09:9545 Rx 1 0x779 s 8 07 01 02 5E 07 00 00 00 
12:47:09:9548 Rx 1 0x77A s 8 00 00 00 00 00 00 00 00 
12:47:10:0545 Rx 1 0x777 s 8 5E 04 58 0A E2 02 00 01 
12:47:10:0547 Rx 1 0x778 s 8 3B 64 29 04 7D BE 22 01 
12:47:10:1545 Rx 1 0x779 s 8 07 01 02 5E 07 00 00 00 
12:47:10:1548 Rx 1 0x77A s 8 00 00 00 00 00 00 00 00 
12:47:10:2545 Rx 1 0x777 s 8 C0 03 F9 0A E2 06 00 01 
12:47:10:2548 Rx 1 0x778 s 8 3B 64 39 04 4E BE 22 01 
12:47:10:3546 Rx 1 0x779 s 8 08 01 02 5E 07 00 00 00 
12:47:10:3548 Rx 1 0x77A s 8 00 00 00 00 00 00 00 00 
12:47:10:4545 Rx 1 0x777 s 8 8B 04 9D 0B E2 04 00 01 
12:47:10:4548 Rx 1 0x778 s 8 3B 64 74 04 CF BD 22 01 
12:47:10:5545 Rx 1 0x779 s 8 08 01 02 5E 07 00 00 00 
12:47:10:5548 Rx 1 0x77A s 8 00 00 00 00 00 00 00 00 
12:47:10:6545 Rx 1 0x777 s 8 B6 04 38 0C E2 01 00 01 
12:47:10:6548 Rx 1 0x778 s 8 3B 64 83 04 EF BD 22 01 
12:47:10:7545 Rx 1 0x779 s 8 09 01 02 5E 07 00 00 00 
12:47:10:7548 Rx 1 0x77A s 8 00 00 00 00 00 00 00 00 
12:47:10:8545 Rx 1 0x777 s 8 5F 04 B5 0C E3 00 00 01 
12:47:10:8548 Rx 1 0x778 s 8 3B 64 3F 04 6E BE 22 01 
12:47:10:9545 Rx 1 0x779 s 8 09 01 02 5E 07 00 00 00 
12:47:10:9548 Rx 1 0x77A s 8 00 00 00 00 00 00 00 00 
12:47:11:0545 Rx 1 0x777 s 8 49 04 55 0D E3 03 00 01 
12:47:11:0548 Rx 1 0x778 s 8 3B 64 FA 03 8D BE 22 01 
12:47:11:1545 Rx 1 0x779 s 8 09 01 02 5E 07 00 00 00 
12:47:11:1548 Rx 1 0x77A s 8 00 00 00 00 00 00 00 00 
12:47:11:2545 Rx 1 0x777 s 8 84 04 FC 0D E3 09 00 01 
12:47:11:2548 Rx 1 0x778 s 8 3B 64 08 04 DD BE 22 01 
12:47:11:3545 Rx 1 0x779 s 8 0A 01 02 5E 07 00 00 00 
12:47:11:3548 Rx 1 0x77A s 8 00 00 00 00 00 00 00 00 
12:47:11:4545 Rx 1 0x777 s 8 AC 04 89 0E E3 09 00 01 
12:47:11:4548 Rx 1 0x778 s 8 3B 64 3E 04 A1 BC 22 01 
12:47:11:5545 Rx 1 0x779 s 8 0A 01 02 5E 07 00 00 00 
12:47:11:5548 Rx 1 0x77A s 8 00 00 00 00 00 00 00 00 
12:47:11:6545 Rx 1 0x777 s 8 52 05 2C 0F E3 07 00 01 
12:47:11:6548 Rx 1 0x778 s 8 3B 64 E4 04 A3 BB 22 01 
12:47:11:7545 Rx 1 0x779 s 8 0B 01 02 5E 07 00 00 00 
12:47:11:7547 Rx 1 0x77A s 8 00 00 00 00 00 00 00 00 
12:47:11:8545 Rx 1 0x777 s 8 51 05 B9 0F E3 02 00 01 
12:47:11:8548 Rx 1 0x778 s 8 3B 64 40 05 BF BD 22 01 
12:47:11:9545 Rx 1 0x779 s 8 0B 01 02 5E 07 00 00 00 
12:47:11:9548 Rx 1 0x77A s 8 00 00 00 00 00 00 00 00 
12:47:12:0545 Rx 1 0x777 s 8 1F 05 43 10 E3 01 00 01 
12:47:12:0548 Rx 1 0x778 s 8 3B 64 0E 05 CD BE 22 01 
12:47:12:1545 Rx 1 0x779 s 8 0C 01 02 5E 07 00 00 00 
12:47:12:1547 Rx 1 0x77A s 8 00 00 00 00 00 00 00 00 
12:47:12:2546 Rx 1 0x777 s 8 78 03 AE 0E E3 00 00 01 
12:47:12:2549 Rx 1 0x778 s 8 3B 64 B8 03 38 C1 22 01 
12:47:12:3545 Rx 1 0x779 s 8 0B 01 02 5E 07 00 00 00 
12:47:12:3547 Rx 1 0x77A s 8 00 00 00 00 00 00 00 00 
12:47:12:4546 Rx 1 0x777 s 8 3E 01 95 0F E3 04 00 01 
12:47:12:4549 Rx 1 0x778 s 8 3B 64 31 01 77 C1 22 01 
12:47:12:5545 Rx 1 0x779 s 8 0B 01 02 5E 07 00 00 00 
12:47:12:5548 Rx 1 0x77A s 8 00 00 00 00 00 00 00 00 
12:47:12:6545 Rx 1 0x777 s 8 DF 00 4E 11 E3 08 00 01 
12:47:12:6548 Rx 1 0x778 s 8 3B 64 8B 00 67 C1 22 01 
12:47:12:7546 Rx 1 0x779 s 8 0C 01 02 5E 07 00 00 00 
12:47:12:7548 Rx 1 0x77A s 8 00 00 00 00 00 00 00 00 
12:47:12:8546 Rx 1 0x777 s 8 30 01 88 10 E3 0A 00 01 
12:47:12:8549 Rx 1 0x778 s 8 3B 64 DF 00 79 C0 22 01 
12:47:12:9546 Rx 1 0x779 s 8 0C 01 02 5E 07 00 00 00 
12:47:12:9548 Rx 1 0x77A s 8 00 00 00 00 00 00 00 00 
12:47:13:0546 Rx 1 0x777 s 8 22 02 37 10 E3 03 00 01 
12:47:13:0549 Rx 1 0x778 s 8 3B 64 DF 01 4C BF 22 01 
12:47:13:1546 Rx 1 0x779 s 8 0C 01 02 5E 07 00 00 00 
12:47:13:1548 Rx 1 0x77A s 8 00 00 00 00 00 00 00 00 
12:47:13:2546 Rx 1 0x777 s 8 C9 02 65 10 E3 02 00 01 
12:47:13:2548 Rx 1 0x778 s 8 3B 64 CF 02 FE BD 22 01 
12:47:13:3545 Rx 1 0x779 s 8 0C 01 02 5E 07 00 00 00 
12:47:13:3548 Rx 1 0x77A s 8 00 00 00 00 00 00 00 00 
12:47:13:4546 Rx 1 0x777 s 8 F1 03 DC 10 E3 0B 00 01 
12:47:13:4549 Rx 1 0x778 s 8 3B 64 C6 03 9F BD 22 01 
12:47:13:5545 Rx 1 0x779 s 8 0C 01 02 5E 07 00 00 00 
12:47:13:5549 Rx 1 0x77A s 8 00 00 00 00 00 00 00 00 
12:47:13:6546 Rx 1 0x777 s 8 1D 05 7B 11 E3 11 00 01 
12:47:13:6549 Rx 1 0x778 s 8 3B 64 EF 04 62 BC 22 01 
12:47:13:7545 Rx 1 0x779 s 8 0D 01 02 5E 07 00 00 00 
12:47:13:7549 Rx 1 0x77A s 8 00 00 00 00 00 00 00 00 
12:47:13:8546 Rx 1 0x777 s 8 52 06 34 12 E3 0A 00 01 
12:47:13:8549 Rx 1 0x778 s 8 3B 64 5D 06 D5 BA 22 01 
12:47:13:9545 Rx 1 0x779 s 8 0D 01 02 5E 07 00 00 00 
12:47:13:9549 Rx 1 0x77A s 8 00 00 00 00 00 00 00 00 
12:47:14:0545 Rx 1 0x777 s 8 33 07 FB 12 E3 02 00 01 
12:47:14:0548 Rx 1 0x778 s 8 3B 64 11 07 D7 B9 22 01 
12:47:14:1546 Rx 1 0x779 s 8 0E 01 02 5E 07 00 00 00 
12:47:14:1549 Rx 1 0x77A s 8 00 00 00 00 00 00 00 00 
12:47:14:2545 Rx 1 0x777 s 8 5C 06 B4 13 E3 01 00 01 
12:47:14:2548 Rx 1 0x778 s 8 3B 64 18 07 E5 BA 22 01 
12:47:14:3546 Rx 1 0x779 s 8 0E 01 02 5E 07 00 00 00 
12:47:14:3548 Rx 1 0x77A s 8 00 00 00 00 00 00 00 00 
12:47:14:4545 Rx 1 0x777 s 8 8E 06 68 14 E3 01 00 01 
12:47:14:4548 Rx 1 0x778 s 8 3B 64 D1 06 C3 BB 22 01 
12:47:14:5545 Rx 1 0x779 s 8 0F 01 02 5E 07 00 00 00 
12:47:14:5548 Rx 1 0x77A s 8 00 00 00 00 00 00 00 00 
12:47:14:6545 Rx 1 0x777 s 8 CB 05 E7 14 E3 00 00 01 
12:47:14:6548 Rx 1 0x778 s 8 3B 64 87 05 30 BD 22 01 
12:47:14:7545 Rx 1 0x779 s 8 0F 01 02 5E 07 00 00 00 
12:47:14:7547 Rx 1 0x77A s 8 00 00 00 00 00 00 00 00 
12:47:14:8545 Rx 1 0x777 s 8 16 03 0E 14 E3 03 00 01 
12:47:14:8548 Rx 1 0x778 s 8 3B 64 8F 03 40 BD 22 01 
12:47:14:9545 Rx 1 0x779 s 8 0F 01 02 5E 07 00 00 00 
12:47:14:9548 Rx 1 0x77A s 8 00 00 00 00 00 00 00 00 
12:47:15:0545 Rx 1 0x777 s 8 E3 01 FB 13 E3 02 00 01 
12:47:15:0548 Rx 1 0x778 s 8 3B 64 DF 01 18 C1 22 01 
12:47:15:1545 Rx 1 0x779 s 8 0F 01 02 5E 07 00 00 00 
12:47:15:1548 Rx 1 0x77A s 8 00 00 00 00 00 00 00 00 
12:47:15:2546 Rx 1 0x777 s 8 B6 00 7F 14 E3 02 00 01 
12:47:15:2549 Rx 1 0x778 s 8 3B 64 84 00 38 C1 22 01 
12:47:15:3546 Rx 1 0x779 s 8 0F 01 02 5E 07 00 00 00 
12:47:15:3549 Rx 1 0x77A s 8 00 00 00 00 00 00 00 00 
12:47:15:4546 Rx 1 0x777 s 8 41 00 89 14 E3 00 00 01 
12:47:15:4549 Rx 1 0x778 s 8 3B 64 2A 00 57 C1 22 01 
12:47:15:5546 Rx 1 0x779 s 8 0F 01 02 5E 07 00 00 00 
12:47:15:5548 Rx 1 0x77A s 8 00 00 00 00 00 00 00 00 
12:47:15:6545 Rx 1 0x777 s 8 18 00 47 14 E3 03 00 01 
12:47:15:6548 Rx 1 0x778 s 8 3B 64 0F 00 67 C1 22 01 
12:47:15:7546 Rx 1 0x779 s 8 0F 01 02 5E 07 00 00 00 
12:47:15:7548 Rx 1 0x77A s 8 00 00 00 00 00 00 00 00 
12:47:15:8546 Rx 1 0x777 s 8 09 00 09 14 E3 08 00 01 
12:47:15:8549 Rx 1 0x778 s 8 3B 64 06 00 77 C1 22 01 
12:47:15:9546 Rx 1 0x779 s 8 0E 01 02 5E 07 00 00 00 
12:47:15:9548 Rx 1 0x77A s 8 00 00 00 00 00 00 00 00 
12:47:16:0546 Rx 1 0x777 s 8 03 00 BB 13 E3 0C 00 01 
12:47:16:0548 Rx 1 0x778 s 8 3B 64 01 00 87 C1 22 01 
12:47:16:1545 Rx 1 0x779 s 8 0E 01 02 5E 07 00 00 00 
12:47:16:1548 Rx 1 0x77A s 8 00 00 00 00 00 00 00 00 
12:47:16:2546 Rx 1 0x777 s 8 EF FF 88 13 E3 0C 00 01 
12:47:16:2549 Rx 1 0x778 s 8 3B 64 FB FF 18 C1 22 01 
12:47:16:3545 Rx 1 0x779 s 8 0E 01 02 5E 07 00 00 00 
12:47:16:3548 Rx 1 0x77A s 8 00 00 00 00 00 00 00 00 
12:47:16:4546 Rx 1 0x777 s 8 92 00 D7 14 E3 04 00 01 
12:47:16:4549 Rx 1 0x778 s 8 3B 64 69 00 C9 C0 22 01 
12:47:16:5545 Rx 1 0x779 s 8 0F 01 02 5E 07 00 00 00 
12:47:16:5548 Rx 1 0x77A s 8 00 00 00 00 00 00 00 00 
12:47:16:6546 Rx 1 0x777 s 8 D3 00 3F 13 E3 00 00 01 
12:47:16:6549 Rx 1 0x778 s 8 3B 64 D4 00 16 C2 22 01 
12:47:16:7546 Rx 1 0x779 s 8 0E 01 02 5E 07 00 00 00 
12:47:16:7548 Rx 1 0x77A s 8 00 00 00 00 00 00 00 00 
12:47:16:8546 Rx 1 0x777 s 8 1B 01 5F 13 E3 03 00 01 
12:47:16:8549 Rx 1 0x778 s 8 3B 64 A5 01 E6 C1 22 01 
12:47:16:9546 Rx 1 0x779 s 8 0E 01 02 5E 07 00 00 00 
12:47:16:9549 Rx 1 0x77A s 8 00 00 00 00 00 00 00 00 
12:47:17:0546 Rx 1 0x777 s 8 84 01 F7 12 E3 08 00 01 
12:47:17:0549 Rx 1 0x778 s 8 3B 64 93 01 9B BF 22 01 
12:47:17:1546 Rx 1 0x779 s 8 0E 01 02 5E 07 00 00 00 
12:47:17:1548 Rx 1 0x77A s 8 00 00 00 00 00 00 00 00 
12:47:17:2546 Rx 1 0x777 s 8 93 01 E6 12 E3 08 00 01 
12:47:17:2549 Rx 1 0x778 s 8 3B 64 B6 01 10 BD 22 01 
12:47:17:3546 Rx 1 0x779 s 8 0E 01 02 5E 07 00 00 00 
12:47:17:3548 Rx 1 0x77A s 8 00 00 00 00 00 00 00 00 
12:47:17:4547 Rx 1 0x777 s 8 66 03 19 13 E3 01 00 01 
12:47:17:4550 Rx 1 0x778 s 8 3B 64 4E 03 7F BD 22 01 
12:47:17:5546 Rx 1 0x779 s 8 0E 01 02 5E 07 00 00 00 
12:47:17:5549 Rx 1 0x77A s 8 00 00 00 00 00 00 00 00 
12:47:17:6547 Rx 1 0x777 s 8 6B 03 1E 13 E3 02 00 01 
12:47:17:6550 Rx 1 0x778 s 8 3B 64 A8 03 2E BE 22 01 
12:47:17:7545 Rx 1 0x779 s 8 0E 01 02 5E 07 00 00 00 
12:47:17:7549 Rx 1 0x77A s 8 00 00 00 00 00 00 00 00 
12:47:17:8547 Rx 1 0x777 s 8 07 01 D5 11 E3 03 00 01 
12:47:17:8550 Rx 1 0x778 s 8 3B 64 BF 01 47 C1 22 01 
12:47:17:9546 Rx 1 0x779 s 8 0D 01 02 5E 07 00 00 00 
12:47:17:9549 Rx 1 0x77A s 8 00 00 00 00 00 00 00 00 
12:47:18:0546 Rx 1 0x777 s 8 63 00 67 12 E3 01 00 01 
12:47:18:0549 Rx 1 0x778 s 8 3B 64 7D 00 77 C1 22 01 
12:47:18:1547 Rx 1 0x779 s 8 0D 01 02 5E 07 00 00 00 
12:47:18:1549 Rx 1 0x77A s 8 00 00 00 00 00 00 00 00 
12:47:18:2546 Rx 1 0x777 s 8 3B 00 91 12 E3 00 00 01 
12:47:18:2549 Rx 1 0x778 s 8 3B 64 43 00 77 C1 22 01 
12:47:18:3546 Rx 1 0x779 s 8 0D 01 02 5E 07 00 00 00 
12:47:18:3549 Rx 1 0x77A s 8 00 00 00 00 00 00 00 00 
12:47:18:4546 Rx 1 0x777 s 8 0D 00 69 12 E3 05 00 01 
12:47:18:4549 Rx 1 0x778 s 8 3B 64 0F 00 87 C1 22 01 
12:47:18:5546 Rx 1 0x779 s 8 0D 01 02 5E 07 00 00 00 
12:47:18:5549 Rx 1 0x77A s 8 00 00 00 00 00 00 00 00 
12:47:18:6547 Rx 1 0x777 s 8 08 00 31 12 E3 06 00 01 
12:47:18:6550 Rx 1 0x778 s 8 3B 64 09 00 97 C1 22 01 
12:47:18:7546 Rx 1 0x779 s 8 0D 01 02 5E 07 00 00 00 
12:47:18:7549 Rx 1 0x77A s 8 00 00 00 00 00 00 00 00 
12:47:18:8547 Rx 1 0x777 s 8 01 00 DE 11 E3 06 00 01 
12:47:18:8550 Rx 1 0x778 s 8 3B 64 0D 00 87 C1 22 01 
12:47:18:9546 Rx 1 0x779 s 8 0D 01 02 5E 07 00 00 00 
12:47:18:9549 Rx 1 0x77A s 8 00 00 00 00 00 00 00 00 
12:47:19:0546 Rx 1 0x777 s 8 CF FF 9D 11 E3 05 00 01 
12:47:19:0549 Rx 1 0x778 s 8 3B 64 21 00 D6 C1 22 01 
12:47:19:1545 Rx 1 0x779 s 8 0D 01 02 5E 07 00 00 00 
12:47:19:1549 Rx 1 0x77A s 8 00 00 00 00 00 00 00 00 
12:47:19:2547 Rx 1 0x777 s 8 2D 00 69 11 E3 01 00 01 
12:47:19:2550 Rx 1 0x778 s 8 3B 64 6B 00 77 C1 22 01 
12:47:19:3547 Rx 1 0x779 s 8 0D 01 02 5E 07 00 00 00 
12:47:19:3549 Rx 1 0x77A s 8 00 00 00 00 00 00 00 00 
12:47:19:4546 Rx 1 0x777 s 8 40 00 30 11 E3 03 00 01 
12:47:19:4549 Rx 1 0x778 s 8 3B 64 74 00 E6 C1 22 01 
12:47:19:5547 Rx 1 0x779 s 8 0C 01 02 5E 07 00 00 00 
12:47:19:5549 Rx 1 0x77A s 8 00 00 00 00 00 00 00 00 
12:47:19:6546 Rx 1 0x777 s 8 16 00 F0 10 E3 01 00 01 
12:47:19:6549 Rx 1 0x778 s 8 3B 64 31 00 A7 C1 22 01 
12:47:19:7546 Rx 1 0x779 s 8 0C 01 02 5E 07 00 00 00 
12:47:19:7550 Rx 1 0x77A s 8 00 00 00 00 00 00 00 00 
12:47:19:8546 Rx 1 0x777 s 8 07 00 A2 10 E3 00 00 01 
12:47:19:8549 Rx 1 0x778 s 8 3B 64 15 00 C6 C1 22 01 
12:47:19:9547 Rx 1 0x779 s 8 0C 01 02 5E 07 00 00 00 
12:47:19:9549 Rx 1 0x77A s 8 00 00 01 00 00 00 00 00 
12:47:20:0547 Rx 1 0x777 s 8 EA FF 51 10 E3 01 00 01 
12:47:20:0549 Rx 1 0x778 s 8 3B 64 07 00 26 C2 22 01 
12:47:20:1546 Rx 1 0x779 s 8 0C 01 02 5E 07 00 00 00 
12:47:20:1549 Rx 1 0x77A s 8 00 00 01 00 00 00 00 00 
12:47:20:2546 Rx 1 0x777 s 8 43 FF D4 0F E3 00 00 01 
12:47:20:2549 Rx 1 0x778 s 8 3B 64 7E FF 55 C2 22 01 
12:47:20:3545 Rx 1 0x779 s 8 0B 01 02 5E 07 00 00 00 
12:47:20:3549 Rx 1 0x77A s 8 00 00 01 00 00 00 00 00 
12:47:20:4546 Rx 1 0x777 s 8 A3 FE 26 0F E3 00 00 01 
12:47:20:4549 Rx 1 0x778 s 8 3B 64 F5 FE 24 C3 22 01 
12:47:20:5546 Rx 1 0x779 s 8 0B 01 02 5E 07 00 00 00 
12:47:20:5549 Rx 1 0x77A s 8 00 00 01 00 00 00 00 00 
12:47:20:6546 Rx 1 0x777 s 8 66 FE 96 0E E3 00 00 01 
12:47:20:6549 Rx 1 0x778 s 8 3B 64 7C FE 33 C3 22 01 
12:47:20:7546 Rx 1 0x779 s 8 0A 01 02 5E 07 00 00 00 
12:47:20:7549 Rx 1 0x77A s 8 00 00 01 00 00 00 00 00 
12:47:20:8546 Rx 1 0x777 s 8 0D FF 0F 0E E3 04 00 01 
12:47:20:8549 Rx 1 0x778 s 8 3B 64 E0 FE F6 C1 22 01 
12:47:20:9546 Rx 1 0x779 s 8 0A 01 02 5E 07 00 00 00 
12:47:20:9549 Rx 1 0x77A s 8 00 00 01 00 00 00 00 00 
12:47:21:0546 Rx 1 0x777 s 8 59 FF A8 0D E3 07 00 01 
12:47:21:0549 Rx 1 0x778 s 8 3B 64 2B FF 16 C2 22 01 
12:47:21:1546 Rx 1 0x779 s 8 0A 01 02 5E 07 00 00 00 
12:47:21:1549 Rx 1 0x77A s 8 00 00 01 00 00 00 00 00 
12:47:21:2546 Rx 1 0x777 s 8 C9 FF 58 0D E3 0F 00 01 
12:47:21:2549 Rx 1 0x778 s 8 3B 64 C6 FF 87 C1 22 01 
12:47:21:3546 Rx 1 0x779 s 8 0A 01 02 5E 07 00 00 00 
12:47:21:3549 Rx 1 0x77A s 8 00 00 00 00 00 00 00 00 
12:47:21:4547 Rx 1 0x777 s 8 79 00 9C 0E E3 10 00 01 
12:47:21:4550 Rx 1 0x778 s 8 3B 64 4B 00 A7 C1 22 01 
12:47:21:5546 Rx 1 0x779 s 8 0A 01 02 5E 07 00 00 00 
12:47:21:5549 Rx 1 0x77A s 8 00 00 00 00 00 00 00 00 
12:47:21:6547 Rx 1 0x777 s 8 92 02 FE 0D E3 0D 00 01 
12:47:21:6550 Rx 1 0x778 s 8 3B 64 DB 01 FE BD 22 01 
12:47:21:7547 Rx 1 0x779 s 8 0A 01 02 5E 07 00 00 00 
12:47:21:7549 Rx 1 0x77A s 8 00 00 00 00 00 00 00 00 
12:47:21:8547 Rx 1 0x777 s 8 EA 03 D0 0D E3 03 00 01 
12:47:21:8550 Rx 1 0x778 s 8 3B 64 BC 03 BF BD 22 01 
12:47:21:9546 Rx 1 0x779 s 8 0A 01 02 5E 07 00 00 00 
12:47:21:9549 Rx 1 0x77A s 8 00 00 00 00 00 00 00 00 
12:47:22:0546 Rx 1 0x777 s 8 64 04 3D 0E E3 00 00 01 
12:47:22:0548 Rx 1 0x778 s 8 3B 64 29 04 BF BD 22 01 
12:47:22:1547 Rx 1 0x779 s 8 0A 01 02 5E 07 00 00 00 
12:47:22:1549 Rx 1 0x77A s 8 00 00 00 00 00 00 00 00 
12:47:22:2547 Rx 1 0x777 s 8 8D 04 BC 0E E3 00 00 01 
12:47:22:2550 Rx 1 0x778 s 8 3B 64 87 04 91 BC 22 01 
12:47:22:3547 Rx 1 0x779 s 8 0B 01 02 5E 07 00 00 00 
12:47:22:3550 Rx 1 0x77A s 8 00 00 00 00 00 00 00 00 
12:47:22:4547 Rx 1 0x777 s 8 A7 04 4D 0F E3 03 00 01 
12:47:22:4550 Rx 1 0x778 s 8 3B 64 8E 04 10 BD 22 01 
12:47:22:5547 Rx 1 0x779 s 8 0B 01 02 5E 07 00 00 00 
12:47:22:5550 Rx 1 0x77A s 8 00 00 00 00 00 00 00 00 
12:47:22:6548 Rx 1 0x777 s 8 5C 05 E4 0F E3 06 00 01 
12:47:22:6551 Rx 1 0x778 s 8 3B 64 D6 04 74 BB 22 01 
12:47:22:7547 Rx 1 0x779 s 8 0B 01 02 5E 07 00 00 00 
12:47:22:7550 Rx 1 0x77A s 8 00 00 00 00 00 00 00 00 
12:47:22:8547 Rx 1 0x777 s 8 9E 05 82 10 E3 02 00 01 
12:47:22:8550 Rx 1 0x778 s 8 3B 64 71 05 74 BB 22 01 
12:47:22:9547 Rx 1 0x779 s 8 0C 01 02 5E 07 00 00 00 
12:47:22:9551 Rx 1 0x77A s 8 00 00 00 00 00 00 00 00 
12:47:23:0547 Rx 1 0x777 s 8 53 05 01 11 E3 01 00 01 
12:47:23:0550 Rx 1 0x778 s 8 3B 64 34 05 AD BE 22 01 
12:47:23:1547 Rx 1 0x779 s 8 0C 01 02 5E 07 00 00 00 
12:47:23:1550 Rx 1 0x77A s 8 00 00 00 00 00 00 00 00 
12:47:23:2548 Rx 1 0x777 s 8 CB 03 83 0F E3 05 00 01 
12:47:23:2551 Rx 1 0x778 s 8 3B 64 A6 04 45 C2 22 01 
12:47:23:3548 Rx 1 0x779 s 8 0B 01 02 5E 07 00 00 00 
12:47:23:3550 Rx 1 0x77A s 8 00 00 00 00 00 00 00 00 
12:47:23:4547 Rx 1 0x777 s 8 23 02 66 10 E3 04 00 01 
12:47:23:4550 Rx 1 0x778 s 8 3B 64 86 02 28 C1 22 01 
12:47:23:5548 Rx 1 0x779 s 8 0C 01 02 5E 07 00 00 00 
12:47:23:5550 Rx 1 0x77A s 8 00 00 00 00 00 00 00 00 
12:47:23:6547 Rx 1 0x777 s 8 7B 00 67 10 E4 00 00 01 
12:47:23:6550 Rx 1 0x778 s 8 3B 64 49 00 47 C1 22 01 
12:47:23:7547 Rx 1 0x779 s 8 0C 01 02 5E 07 00 00 00 
12:47:23:7550 Rx 1 0x77A s 8 00 00 01 00 00 00 00 00 
12:47:23:8547 Rx 1 0x777 s 8 07 00 AD 0F E4 01 00 01 
12:47:23:8550 Rx 1 0x778 s 8 3B 64 08 00 67 C1 22 01 
12:47:23:9548 Rx 1 0x779 s 8 0B 01 02 5E 07 00 00 00 
12:47:23:9550 Rx 1 0x77A s 8 00 00 01 00 00 00 00 00 
12:47:24:0548 Rx 1 0x777 s 8 75 FF 9C 0E E4 00 00 01 
12:47:24:0550 Rx 1 0x778 s 8 3B 64 B8 FF 36 C2 22 01 
12:47:24:1547 Rx 1 0x779 s 8 0A 01 02 5E 07 00 00 00 
12:47:24:1550 Rx 1 0x77A s 8 00 00 01 00 00 00 00 00 
12:47:24:2547 Rx 1 0x777 s 8 21 FF 36 0D E4 00 00 01 
12:47:24:2550 Rx 1 0x778 s 8 3B 64 42 FF 65 C2 22 01 
12:47:24:3546 Rx 1 0x779 s 8 0A 01 02 5E 07 00 00 00 
12:47:24:3549 Rx 1 0x77A s 8 00 00 01 00 00 00 00 00 
12:47:24:4547 Rx 1 0x777 s 8 EB FE B2 0B E4 00 00 01 
12:47:24:4550 Rx 1 0x778 s 8 3B 64 1F FF 75 C2 22 01 
12:47:24:5547 Rx 1 0x779 s 8 09 01 02 5E 07 00 00 00 
12:47:24:5549 Rx 1 0x77A s 8 00 00 01 00 00 00 00 00 
12:47:24:6546 Rx 1 0x777 s 8 EC FE 3B 0A E3 00 00 01 
12:47:24:6549 Rx 1 0x778 s 8 3B 64 13 FF 75 C2 22 01 
12:47:24:7546 Rx 1 0x779 s 8 07 01 02 5E 07 00 00 00 
12:47:24:7549 Rx 1 0x77A s 8 00 00 01 00 00 00 00 00 
12:47:24:8546 Rx 1 0x777 s 8 0A FF E6 08 E3 00 00 01 
12:47:24:8549 Rx 1 0x778 s 8 3B 64 14 FF 55 C2 22 01 
12:47:24:9547 Rx 1 0x779 s 8 06 01 02 5E 07 00 00 00 
12:47:24:9549 Rx 1 0x77A s 8 00 00 01 00 00 00 00 00 
12:47:25:0547 Rx 1 0x777 s 8 3A FF 8D 07 E4 00 00 01 
12:47:25:0549 Rx 1 0x778 s 8 3B 64 2D FF 55 C2 22 01 
12:47:25:1546 Rx 1 0x779 s 8 05 01 02 5E 07 00 00 00 
12:47:25:1549 Rx 1 0x77A s 8 00 00 01 00 00 00 00 00 
12:47:25:2546 Rx 1 0x777 s 8 A7 FF 64 06 E4 00 00 01 
12:47:25:2549 Rx 1 0x778 s 8 3B 64 A6 FF D6 C1 22 01 
12:47:25:3545 Rx 1 0x779 s 8 04 01 02 5E 07 00 00 00 
12:47:25:3549 Rx 1 0x77A s 8 00 00 01 00 00 00 00 00 
12:47:25:4546 Rx 1 0x777 s 8 C5 FF 68 05 E4 00 00 01 
12:47:25:4549 Rx 1 0x778 s 8 3B 64 E8 FF D6 C1 22 01 
12:47:25:5545 Rx 1 0x779 s 8 04 01 02 5E 07 00 00 00 
12:47:25:5548 Rx 1 0x77A s 8 00 00 01 00 00 00 00 00 
12:47:25:6546 Rx 1 0x777 s 8 C7 FF 8F 04 E4 00 00 01 
12:47:25:6549 Rx 1 0x778 s 8 3B 64 EA FF E6 C1 22 01 
12:47:25:7545 Rx 1 0x779 s 8 03 01 02 5E 07 00 00 00 
12:47:25:7548 Rx 1 0x77A s 8 00 00 01 00 00 00 00 00 
12:47:25:8546 Rx 1 0x777 s 8 C7 FF A7 03 E3 00 00 01 
12:47:25:8549 Rx 1 0x778 s 8 3B 64 E0 FF E6 C1 22 01 
12:47:25:9545 Rx 1 0x779 s 8 02 01 02 5E 07 00 00 00 
12:47:25:9547 Rx 1 0x77A s 8 00 00 01 00 00 00 00 00 
12:47:26:0545 Rx 1 0x777 s 8 D9 FF C5 02 E3 00 00 01 
12:47:26:0548 Rx 1 0x778 s 8 3B 64 E5 FF B7 C1 22 01 
12:47:26:1546 Rx 1 0x779 s 8 02 01 02 5E 07 00 00 00 
12:47:26:1548 Rx 1 0x77A s 8 00 00 00 00 00 00 00 00 
12:47:26:2546 Rx 1 0x777 s 8 ED FF E2 01 E3 00 00 01 
12:47:26:2549 Rx 1 0x778 s 8 3B 64 F0 FF A7 C1 22 01 
12:47:26:3546 Rx 1 0x779 s 8 00 01 02 5E 07 00 00 00 
12:47:26:3549 Rx 1 0x77A s 8 00 00 00 00 00 00 00 00 
12:47:26:4546 Rx 1 0x777 s 8 28 00 2F 01 E4 00 00 01 
12:47:26:4549 Rx 1 0x778 s 8 3B 64 2B 00 C6 C1 22 01 
12:47:26:5546 Rx 1 0x779 s 8 00 01 02 5E 07 00 00 00 
12:47:26:5550 Rx 1 0x77A s 8 00 00 00 00 00 00 00 00 
12:47:26:6547 Rx 1 0x777 s 8 10 00 FD 00 E3 00 00 01 
12:47:26:6550 Rx 1 0x778 s 8 3B 64 1C 00 C6 C1 22 01 
12:47:26:7546 Rx 1 0x779 s 8 00 01 02 5E 07 00 00 00 
12:47:26:7549 Rx 1 0x77A s 8 00 00 00 00 00 00 00 00 
12:47:26:8547 Rx 1 0x777 s 8 05 00 1E 01 E3 00 00 01 
12:47:26:8550 Rx 1 0x778 s 8 3B 64 13 00 C6 C1 22 01 
12:47:26:9546 Rx 1 0x779 s 8 00 01 02 5E 07 00 00 00 
12:47:26:9549 Rx 1 0x77A s 8 00 00 00 00 00 00 00 00 
12:47:27:0546 Rx 1 0x777 s 8 02 00 5E 01 E4 00 00 01 
12:47:27:0549 Rx 1 0x778 s 8 3B 64 0F 00 C6 C1 22 01 
12:47:27:1546 Rx 1 0x779 s 8 00 01 02 5E 07 00 00 00 
12:47:27:1549 Rx 1 0x77A s 8 00 00 00 00 00 00 00 00 
12:47:27:2546 Rx 1 0x777 s 8 01 00 A4 01 E3 00 00 01 
12:47:27:2549 Rx 1 0x778 s 8 3B 64 0E 00 C6 C1 22 01 
12:47:27:3546 Rx 1 0x779 s 8 00 01 02 5E 07 00 00 00 
12:47:27:3549 Rx 1 0x77A s 8 00 00 01 00 00 00 00 00 
12:47:27:4546 Rx 1 0x777 s 8 FE FF E8 01 E4 00 00 01 
12:47:27:4549 Rx 1 0x778 s 8 3B 64 11 00 D6 C1 22 01 
12:47:27:5546 Rx 1 0x779 s 8 00 01 02 5E 07 00 00 00 
12:47:27:5549 Rx 1 0x77A s 8 00 00 01 00 00 00 00 00 
12:47:27:6546 Rx 1 0x777 s 8 F8 FF 21 02 E4 00 00 01 
12:47:27:6549 Rx 1 0x778 s 8 3B 64 09 00 D6 C1 22 01 
12:47:27:7546 Rx 1 0x779 s 8 00 01 02 5E 07 00 00 00 
12:47:27:7548 Rx 1 0x77A s 8 00 00 01 00 00 00 00 00 
12:47:27:8546 Rx 1 0x777 s 8 F7 FF 48 02 E3 03 00 01 
12:47:27:8549 Rx 1 0x778 s 8 3B 64 05 00 D6 C1 22 01 
12:47:27:9546 Rx 1 0x779 s 8 00 01 02 5E 07 00 00 00 
12:47:27:9549 Rx 1 0x77A s 8 00 00 00 00 00 00 00 00 
12:47:28:0546 Rx 1 0x777 s 8 0C 00 A2 03 E3 07 00 01 
12:47:28:0549 Rx 1 0x778 s 8 3B 64 09 00 C6 C1 22 01 
12:47:28:1546 Rx 1 0x779 s 8 02 01 02 5E 07 00 00 00 
12:47:28:1548 Rx 1 0x77A s 8 00 00 00 00 00 00 00 00 
12:47:28:2547 Rx 1 0x777 s 8 1D 00 DE 03 E4 07 00 01 
12:47:28:2550 Rx 1 0x778 s 8 3B 64 1D 00 B7 C1 22 01 
12:47:28:3546 Rx 1 0x779 s 8 02 01 02 5E 07 00 00 00 
12:47:28:3549 Rx 1 0x77A s 8 00 00 00 00 00 00 00 00 
12:47:28:4547 Rx 1 0x777 s 8 78 00 BD 03 E3 03 00 01 
12:47:28:4550 Rx 1 0x778 s 8 3B 64 68 00 47 C1 22 01 
12:47:28:5547 Rx 1 0x779 s 8 02 01 02 5E 07 00 00 00 
12:47:28:5549 Rx 1 0x77A s 8 00 00 00 00 00 00 00 00 
12:47:28:6547 Rx 1 0x777 s 8 BA 00 5D 04 E3 00 00 01 
12:47:28:6549 Rx 1 0x778 s 8 3B 64 AE 00 38 C1 22 01 
12:47:28:7547 Rx 1 0x779 s 8 03 01 02 5E 07 00 00 00 
12:47:28:7549 Rx 1 0x77A s 8 00 00 00 00 00 00 00 00 
12:47:28:8547 Rx 1 0x777 s 8 FF 00 1B 05 E3 00 00 01 
12:47:28:8550 Rx 1 0x778 s 8 3B 64 F7 00 18 C1 22 01 
12:47:28:9547 Rx 1 0x779 s 8 03 01 02 5E 07 00 00 00 
12:47:28:9549 Rx 1 0x77A s 8 00 00 00 00 00 00 00 00 
12:47:29:0547 Rx 1 0x777 s 8 3A 01 FE 05 E3 02 00 01 
12:47:29:0550 Rx 1 0x778 s 8 3B 64 2A 01 C9 C0 22 01 
12:47:29:1547 Rx 1 0x779 s 8 04 01 02 5E 07 00 00 00 
12:47:29:1549 Rx 1 0x77A s 8 00 00 00 00 00 00 00 00 
12:47:29:2546 Rx 1 0x777 s 8 80 01 18 07 E3 04 00 01 
12:47:29:2549 Rx 1 0x778 s 8 3B 64 4B 01 0A C0 22 01 
12:47:29:3547 Rx 1 0x779 s 8 04 01 02 5E 07 00 00 00 
12:47:29:3549 Rx 1 0x77A s 8 00 00 00 00 00 00 00 00 
12:47:29:4548 Rx 1 0x777 s 8 E3 01 09 08 E3 05 00 01 
12:47:29:4551 Rx 1 0x778 s 8 3B 64 BD 01 BB BF 22 01 
12:47:29:5546 Rx 1 0x779 s 8 06 01 02 5E 07 00 00 00 
12:47:29:5549 Rx 1 0x77A s 8 00 00 00 00 00 00 00 00 
12:47:29:6547 Rx 1 0x777 s 8 43 02 D1 08 E3 01 00 01 
12:47:29:6550 Rx 1 0x778 s 8 3B 64 1C 02 AB BF 22 01 
12:47:29:7546 Rx 1 0x779 s 8 06 01 02 5E 07 00 00 00 
12:47:29:7550 Rx 1 0x77A s 8 00 00 00 00 00 00 00 00 
12:47:29:8546 Rx 1 0x777 s 8 70 02 A2 09 E3 02 00 01 
12:47:29:8549 Rx 1 0x778 s 8 3B 64 49 02 AB BF 22 01 
12:47:29:9547 Rx 1 0x779 s 8 07 01 02 5E 07 00 00 00 
12:47:29:9549 Rx 1 0x77A s 8 00 00 00 00 00 00 00 00 
12:47:30:0547 Rx 1 0x777 s 8 9C 02 DF 0A E4 03 00 01 
12:47:30:0549 Rx 1 0x778 s 8 3B 64 55 02 3C BF 22 01 
12:47:30:1547 Rx 1 0x779 s 8 07 01 02 5E 07 00 00 00 
12:47:30:1550 Rx 1 0x77A s 8 00 00 00 00 00 00 00 00 
12:47:30:2546 Rx 1 0x777 s 8 36 03 4B 0B E4 0C 00 01 
12:47:30:2549 Rx 1 0x778 s 8 3B 64 A0 02 1C BF 22 01 
12:47:30:3546 Rx 1 0x779 s 8 08 01 02 5E 07 00 00 00 
12:47:30:3549 Rx 1 0x77A s 8 00 00 00 00 00 00 00 00 
12:47:30:4546 Rx 1 0x777 s 8 F2 03 A1 0B E4 12 00 01 
12:47:30:4549 Rx 1 0x778 s 8 3B 64 3A 03 8F BD 22 01 
12:47:30:5546 Rx 1 0x779 s 8 08 01 02 5E 07 00 00 00 
12:47:30:5548 Rx 1 0x77A s 8 00 00 00 00 00 00 00 00 
12:47:30:6547 Rx 1 0x777 s 8 92 04 52 0C E4 09 00 01 
12:47:30:6550 Rx 1 0x778 s 8 3B 64 3E 04 4E BE 22 01 
12:47:30:7546 Rx 1 0x779 s 8 09 01 02 5E 07 00 00 00 
12:47:30:7549 Rx 1 0x77A s 8 00 00 00 00 00 00 00 00 
12:47:30:8546 Rx 1 0x777 s 8 08 05 25 0D E4 02 00 01 
12:47:30:8548 Rx 1 0x778 s 8 3B 64 BD 04 01 BD 22 01 
12:47:30:9546 Rx 1 0x779 s 8 09 01 02 5E 07 00 00 00 
12:47:30:9548 Rx 1 0x77A s 8 00 00 00 00 00 00 00 00 
12:47:31:0546 Rx 1 0x777 s 8 2E 05 F6 0D E4 03 00 01 
12:47:31:0549 Rx 1 0x778 s 8 3B 64 C4 04 B1 BC 22 01 
12:47:31:1545 Rx 1 0x779 s 8 0A 01 02 5E 07 00 00 00 
12:47:31:1549 Rx 1 0x77A s 8 00 00 00 00 00 00 00 00 
12:47:31:2547 Rx 1 0x777 s 8 3F 05 D1 0E E4 08 00 01 
12:47:31:2550 Rx 1 0x778 s 8 3B 64 04 05 72 BC 22 01 
12:47:31:3546 Rx 1 0x779 s 8 0A 01 02 5E 07 00 00 00 
12:47:31:3549 Rx 1 0x77A s 8 00 00 00 00 00 00 00 00 
12:47:31:4547 Rx 1 0x777 s 8 E0 05 B1 0F E4 07 00 01 
12:47:31:4550 Rx 1 0x778 s 8 3B 64 9D 05 46 BA 22 01 
12:47:31:5547 Rx 1 0x779 s 8 0B 01 02 5E 07 00 00 00 
12:47:31:5549 Rx 1 0x77A s 8 00 00 00 00 00 00 00 00 
12:47:31:6546 Rx 1 0x777 s 8 5C 06 7C 10 E4 00 00 01 
12:47:31:6549 Rx 1 0x778 s 8 3B 64 FE 05 C3 BB 22 01 
12:47:31:7547 Rx 1 0x779 s 8 0C 01 02 5E 07 00 00 00 
12:47:31:7549 Rx 1 0x77A s 8 00 00 00 00 00 00 00 00 
12:47:31:8547 Rx 1 0x777 s 8 24 06 26 11 E4 03 00 01 
12:47:31:8550 Rx 1 0x778 s 8 3B 64 AF 05 42 BC 22 01 
12:47:31:9547 Rx 1 0x779 s 8 0C 01 02 5E 07 00 00 00 
12:47:31:9549 Rx 1 0x77A s 8 00 00 00 00 00 00 00 00 
12:47:32:0547 Rx 1 0x777 s 8 24 06 EB 11 E4 03 00 01 
12:47:32:0550 Rx 1 0x778 s 8 3B 64 AF 05 44 BB 22 01 
12:47:32:1546 Rx 1 0x779 s 8 0D 01 02 5E 07 00 00 00 
12:47:32:1549 Rx 1 0x77A s 8 00 00 00 00 00 00 00 00 
12:47:32:2547 Rx 1 0x777 s 8 2E 07 C8 12 E4 19 00 01 
12:47:32:2550 Rx 1 0x778 s 8 3B 64 52 06 B3 BB 22 01 
12:47:32:3546 Rx 1 0x779 s 8 0E 01 02 5E 07 00 00 00 
12:47:32:3549 Rx 1 0x77A s 8 00 00 00 00 00 00 00 00 
12:47:32:4547 Rx 1 0x777 s 8 7F 08 9E 13 E4 0C 00 01 
12:47:32:4550 Rx 1 0x778 s 8 3B 64 CE 07 6E B6 22 01 
12:47:32:5547 Rx 1 0x779 s 8 0E 01 02 5E 07 00 00 00 
12:47:32:5549 Rx 1 0x77A s 8 00 00 00 00 00 00 00 00 
12:47:32:6546 Rx 1 0x777 s 8 7F 08 71 14 E4 05 00 01 
12:47:32:6549 Rx 1 0x778 s 8 3B 64 2D 08 98 B9 22 01 
12:47:32:7547 Rx 1 0x779 s 8 0F 01 02 5E 07 00 00 00 
12:47:32:7549 Rx 1 0x77A s 8 00 00 00 00 00 00 00 00 
12:47:32:8547 Rx 1 0x777 s 8 D4 07 25 15 E4 01 00 01 
12:47:32:8550 Rx 1 0x778 s 8 3B 64 09 08 7A B8 22 01 
12:47:32:9547 Rx 1 0x779 s 8 0F 01 02 5E 07 00 00 00 
12:47:32:9549 Rx 1 0x77A s 8 00 00 00 00 00 00 00 00 
12:47:33:0547 Rx 1 0x777 s 8 7A 09 DA 15 E4 04 00 01 
12:47:33:0550 Rx 1 0x778 s 8 3B 64 A1 07 56 BA 22 01 
12:47:33:1547 Rx 1 0x779 s 8 10 01 02 5E 07 00 00 00 
12:47:33:1549 Rx 1 0x77A s 8 00 00 00 00 00 00 00 00 
12:47:33:2545 Rx 1 0x777 s 8 15 0A 72 16 E4 04 00 01 
12:47:33:2548 Rx 1 0x778 s 8 3B 64 4A 07 F3 BB 22 01 
12:47:33:3545 Rx 1 0x779 s 8 10 01 02 5E 07 00 00 00 
12:47:33:3549 Rx 1 0x77A s 8 00 00 00 00 00 00 00 00 
12:47:33:4546 Rx 1 0x777 s 8 A4 06 E1 16 E4 00 00 01 
12:47:33:4549 Rx 1 0x778 s 8 3B 64 BE 06 D1 BC 22 01 
12:47:33:5545 Rx 1 0x779 s 8 11 01 02 5E 07 00 00 00 
12:47:33:5549 Rx 1 0x77A s 8 00 00 00 00 00 00 00 00 
12:47:33:6546 Rx 1 0x777 s 8 05 05 AE 16 E4 02 00 01 
12:47:33:6549 Rx 1 0x778 s 8 3B 64 89 04 1E BE 22 01 
12:47:33:7545 Rx 1 0x779 s 8 11 01 02 5E 07 00 00 00 
12:47:33:7548 Rx 1 0x77A s 8 00 00 00 00 00 00 00 00 
12:47:33:8546 Rx 1 0x777 s 8 5F 01 44 15 E5 0E 00 01 
12:47:33:8549 Rx 1 0x778 s 8 3B 64 07 02 EA BF 22 01 
12:47:33:9545 Rx 1 0x779 s 8 10 01 02 5E 07 00 00 00 
12:47:33:9549 Rx 1 0x77A s 8 00 00 00 00 00 00 00 00 
12:47:34:0545 Rx 1 0x777 s 8 52 01 10 17 E5 1D 00 01 
12:47:34:0548 Rx 1 0x778 s 8 3B 64 FC 00 87 C1 22 01 
12:47:34:1546 Rx 1 0x779 s 8 11 01 02 5E 07 00 00 00 
12:47:34:1548 Rx 1 0x77A s 8 00 00 00 00 00 00 00 00 
12:47:34:2546 Rx 1 0x777 s 8 41 02 32 17 E5 12 00 01 
12:47:34:2549 Rx 1 0x778 s 8 3B 64 F8 01 10 BD 22 01 
12:47:34:3546 Rx 1 0x779 s 8 11 01 02 5E 07 00 00 00 
12:47:34:3550 Rx 1 0x77A s 8 00 00 00 00 00 00 00 00 
12:47:34:4547 Rx 1 0x777 s 8 08 04 C4 16 E5 08 00 01 
12:47:34:4550 Rx 1 0x778 s 8 3B 64 E6 02 54 BB 22 01 
12:47:34:5546 Rx 1 0x779 s 8 11 01 02 5E 07 00 00 00 
12:47:34:5549 Rx 1 0x77A s 8 00 00 00 00 00 00 00 00 
12:47:34:6547 Rx 1 0x777 s 8 F8 05 12 17 E5 0E 00 01 
12:47:34:6550 Rx 1 0x778 s 8 3B 64 D4 04 F3 BB 22 01 
12:47:34:7547 Rx 1 0x779 s 8 11 01 02 5E 07 00 00 00 
12:47:34:7549 Rx 1 0x77A s 8 00 00 00 00 00 00 00 00 
12:47:34:8547 Rx 1 0x777 s 8 A2 06 A7 17 E5 12 00 01 
12:47:34:8550 Rx 1 0x778 s 8 3B 64 07 06 48 B9 22 01 
12:47:34:9546 Rx 1 0x779 s 8 11 01 02 5E 07 00 00 00 
12:47:34:9549 Rx 1 0x77A s 8 00 00 00 00 00 00 00 00 
12:47:35:0546 Rx 1 0x777 s 8 5E 08 5C 18 E5 04 00 01 
12:47:35:0549 Rx 1 0x778 s 8 3B 64 74 08 DB B7 22 01 
12:47:35:1547 Rx 1 0x779 s 8 12 01 02 5E 07 00 00 00 
12:47:35:1549 Rx 1 0x77A s 8 00 00 00 00 00 00 00 00 
12:47:35:2546 Rx 1 0x777 s 8 06 09 02 19 E5 0B 00 01 
12:47:35:2549 Rx 1 0x778 s 8 3B 64 12 09 BE B6 22 01 
12:47:35:3547 Rx 1 0x779 s 8 12 01 02 5E 07 00 00 00 
12:47:35:3549 Rx 1 0x77A s 8 00 00 00 00 00 00 00 00 
12:47:35:4546 Rx 1 0x777 s 8 FB 08 B4 19 E5 11 00 01 
12:47:35:4549 Rx 1 0x778 s 8 3B 64 23 09 6A B8 22 01 
12:47:35:5547 Rx 1 0x779 s 8 13 01 02 5E 07 00 00 00 
12:47:35:5549 Rx 1 0x77A s 8 00 00 00 00 00 00 00 00 
12:47:35:6546 Rx 1 0x777 s 8 EB 08 55 1A E5 07 00 01 
12:47:35:6549 Rx 1 0x778 s 8 3B 64 89 09 FB B7 22 01 
12:47:35:7547 Rx 1 0x779 s 8 13 01 02 5E 07 00 00 00 
12:47:35:7549 Rx 1 0x77A s 8 00 00 00 00 00 00 00 00 
12:47:35:8547 Rx 1 0x777 s 8 56 08 BC 1A E5 02 00 01 
12:47:35:8550 Rx 1 0x778 s 8 3B 64 BF 08 BA B8 22 01 
12:47:35:9547 Rx 1 0x779 s 8 14 01 02 5E 07 00 00 00 
12:47:35:9549 Rx 1 0x77A s 8 00 00 00 00 00 00 00 00 
12:47:36:0547 Rx 1 0x777 s 8 AE 05 FD 1A E5 08 00 01 
12:47:36:0550 Rx 1 0x778 s 8 3B 64 D8 05 CF BD 22 01 
12:47:36:1546 Rx 1 0x779 s 8 14 01 02 5E 07 00 00 00 
12:47:36:1549 Rx 1 0x77A s 8 00 00 00 00 00 00 00 00 
12:47:36:2547 Rx 1 0x777 s 8 AB 04 F8 1A E5 0B 00 01 
12:47:36:2550 Rx 1 0x778 s 8 3B 64 D8 04 70 BD 22 01 
12:47:36:3547 Rx 1 0x779 s 8 14 01 02 5E 07 00 00 00 
12:47:36:3550 Rx 1 0x77A s 8 00 00 00 00 00 00 00 00 
12:47:36:4547 Rx 1 0x777 s 8 FF 02 E7 1A E5 07 00 01 
12:47:36:4549 Rx 1 0x778 s 8 3B 64 E6 02 2E BE 22 01 
12:47:36:5547 Rx 1 0x779 s 8 14 01 02 5E 07 00 00 00 
12:47:36:5549 Rx 1 0x77A s 8 00 00 00 00 00 00 00 00 
12:47:36:6546 Rx 1 0x777 s 8 8C 02 AF 1A E5 03 00 01 
12:47:36:6549 Rx 1 0x778 s 8 3B 64 16 03 AD BE 22 01 
12:47:36:7546 Rx 1 0x779 s 8 14 01 02 5E 07 00 00 00 
12:47:36:7549 Rx 1 0x77A s 8 00 00 00 00 00 00 00 00 
12:47:36:8546 Rx 1 0x777 s 8 07 01 15 1A E5 0A 00 01 
12:47:36:8549 Rx 1 0x778 s 8 3B 64 BF 01 6B BF 22 01 
12:47:36:9546 Rx 1 0x779 s 8 13 01 02 5E 07 00 00 00 
12:47:36:9549 Rx 1 0x77A s 8 00 00 00 00 00 00 00 00 
12:47:37:0547 Rx 1 0x777 s 8 2A 01 68 1A E5 19 00 01 
12:47:37:0549 Rx 1 0x778 s 8 3B 64 35 01 CF BD 22 01 
12:47:37:1546 Rx 1 0x779 s 8 13 01 02 5E 07 00 00 00 
12:47:37:1549 Rx 1 0x77A s 8 00 00 00 00 00 00 00 00 
12:47:37:2546 Rx 1 0x777 s 8 B1 02 54 1A E5 12 00 01 
12:47:37:2549 Rx 1 0x778 s 8 3B 64 D1 01 A9 C0 22 01 
12:47:37:3545 Rx 1 0x779 s 8 13 01 02 5E 07 00 00 00 
12:47:37:3548 Rx 1 0x77A s 8 00 00 00 00 00 00 00 00 
12:47:37:4546 Rx 1 0x777 s 8 C4 03 20 1A E5 06 00 01 
12:47:37:4549 Rx 1 0x778 s 8 3B 64 43 03 70 BD 22 01 
12:47:37:5545 Rx 1 0x779 s 8 13 01 02 5E 07 00 00 00 
12:47:37:5549 Rx 1 0x77A s 8 00 00 00 00 00 00 00 00 
12:47:37:6546 Rx 1 0x777 s 8 F3 03 1F 1A E5 08 00 01 
12:47:37:6549 Rx 1 0x778 s 8 3B 64 69 03 B7 B9 22 01 
12:47:37:7545 Rx 1 0x779 s 8 13 01 02 5E 07 00 00 00 
12:47:37:7548 Rx 1 0x77A s 8 00 00 00 00 00 00 00 00 
12:47:37:8546 Rx 1 0x777 s 8 22 05 73 1A E5 13 00 01 
12:47:37:8549 Rx 1 0x778 s 8 3B 64 12 05 88 B9 22 01 
12:47:37:9545 Rx 1 0x779 s 8 13 01 02 5E 07 00 00 00 
12:47:37:9549 Rx 1 0x77A s 8 00 00 00 00 00 00 00 00 
12:47:38:0545 Rx 1 0x777 s 8 88 06 ED 1A E5 04 00 01 
12:47:38:0548 Rx 1 0x778 s 8 3B 64 B0 06 CC B7 22 01 
12:47:38:1546 Rx 1 0x779 s 8 13 01 02 5E 07 00 00 00 
12:47:38:1548 Rx 1 0x77A s 8 00 00 00 00 00 00 00 00 
12:47:38:2544 Rx 1 0x777 s 8 9E 06 3A 1B E5 03 00 01 
12:47:38:2547 Rx 1 0x778 s 8 3B 64 E8 06 84 BB 22 01 
12:47:38:3544 Rx 1 0x779 s 8 14 01 02 5E 07 00 00 00 
12:47:38:3547 Rx 1 0x77A s 8 00 00 00 00 00 00 00 00 
12:47:38:4545 Rx 1 0x777 s 8 B5 05 71 1B E5 17 00 01 
12:47:38:4548 Rx 1 0x778 s 8 3B 64 4D 05 91 BC 22 01 
12:47:38:5544 Rx 1 0x779 s 8 14 01 02 5E 07 00 00 00 
12:47:38:5548 Rx 1 0x77A s 8 00 00 00 00 00 00 00 00 
12:47:38:6545 Rx 1 0x777 s 8 94 05 AF 1B E5 15 00 01 
12:47:38:6548 Rx 1 0x778 s 8 3B 64 2B 05 B3 BB 22 01 
12:47:38:7545 Rx 1 0x779 s 8 14 01 02 5E 07 00 00 00 
12:47:38:7548 Rx 1 0x77A s 8 00 00 00 00 00 00 00 00 
12:47:38:8545 Rx 1 0x777 s 8 EB 05 D9 1B E5 04 00 01 
12:47:38:8548 Rx 1 0x778 s 8 3B 64 BE 05 AD BE 22 01 
12:47:38:9544 Rx 1 0x779 s 8 14 01 02 5E 07 00 00 00 
12:47:38:9547 Rx 1 0x77A s 8 00 00 00 00 00 00 00 00 
12:47:39:0544 Rx 1 0x777 s 8 98 05 FA 1B E5 0B 00 01 
12:47:39:0547 Rx 1 0x778 s 8 3B 64 DE 04 1E BE 22 01 
12:47:39:1545 Rx 1 0x779 s 8 14 01 02 5E 07 00 00 00 
12:47:39:1547 Rx 1 0x77A s 8 00 00 00 00 00 00 00 00 
12:47:39:2543 Rx 1 0x777 s 8 2C 05 1C 1C E5 0E 00 01 
12:47:39:2546 Rx 1 0x778 s 8 3B 64 1F 04 B5 BA 22 01 
12:47:39:3544 Rx 1 0x779 s 8 15 01 02 5E 07 00 00 00 
12:47:39:3547 Rx 1 0x77A s 8 00 00 00 00 00 00 00 00 
12:47:39:4544 Rx 1 0x777 s 8 1E 04 21 1C E5 02 00 01 
12:47:39:4547 Rx 1 0x778 s 8 3B 64 22 04 52 BC 22 01 
12:47:39:5544 Rx 1 0x779 s 8 15 01 02 5E 07 00 00 00 
12:47:39:5546 Rx 1 0x77A s 8 00 00 00 00 00 00 00 00 
12:47:39:6544 Rx 1 0x777 s 8 C1 03 0C 1C E5 02 00 01 
12:47:39:6546 Rx 1 0x778 s 8 3B 64 F7 03 D3 BB 22 01 
12:47:39:7544 Rx 1 0x779 s 8 15 01 02 5E 07 00 00 00 
12:47:39:7546 Rx 1 0x77A s 8 00 00 00 00 00 00 00 00 
12:47:39:8544 Rx 1 0x777 s 8 5B 02 E1 1B E5 16 00 01 
12:47:39:8547 Rx 1 0x778 s 8 3B 64 67 02 6E BE 22 01 
12:47:39:9544 Rx 1 0x779 s 8 14 01 02 5E 07 00 00 00 
12:47:39:9547 Rx 1 0x77A s 8 00 00 00 00 00 00 00 00 
12:47:40:0544 Rx 1 0x777 s 8 12 02 DF 1B E5 21 00 01 
12:47:40:0547 Rx 1 0x778 s 8 3B 64 0F 02 03 BC 22 01 
12:47:40:1543 Rx 1 0x779 s 8 14 01 02 5E 07 00 00 00 
12:47:40:1546 Rx 1 0x77A s 8 00 00 00 00 00 00 00 00 
12:47:40:2542 Rx 1 0x777 s 8 E4 03 37 1C E5 0E 00 01 
12:47:40:2545 Rx 1 0x778 s 8 3B 64 F7 03 48 B9 22 01 
12:47:40:3542 Rx 1 0x779 s 8 15 01 02 5E 07 00 00 00 
12:47:40:3545 Rx 1 0x77A s 8 00 00 00 00 00 00 00 00 
12:47:40:4543 Rx 1 0x777 s 8 2D 06 C2 1C E5 1A 00 01 
12:47:40:4546 Rx 1 0x778 s 8 3B 64 53 06 32 BC 22 01 
12:47:40:5543 Rx 1 0x779 s 8 15 01 02 5E 07 00 00 00 
12:47:40:5546 Rx 1 0x77A s 8 00 00 00 00 00 00 00 00 
12:47:40:6542 Rx 1 0x777 s 8 03 08 87 1D E5 27 00 01 
12:47:40:6545 Rx 1 0x778 s 8 3B 64 AE 08 A0 B5 22 01 
12:47:40:7543 Rx 1 0x779 s 8 16 01 02 5E 07 00 00 00 
12:47:40:7545 Rx 1 0x77A s 8 00 00 00 00 00 00 00 00 
12:47:40:8543 Rx 1 0x777 s 8 4B 09 3C 1E E5 12 00 01 
12:47:40:8546 Rx 1 0x778 s 8 3B 64 57 0A 0F B6 22 01 
12:47:40:9543 Rx 1 0x779 s 8 16 01 02 5E 07 00 00 00 
12:47:40:9545 Rx 1 0x77A s 8 00 00 00 00 00 00 00 00 
12:47:41:0543 Rx 1 0x777 s 8 44 0A F7 1E E5 22 00 01 
12:47:41:0546 Rx 1 0x778 s 8 3B 64 94 0A 31 B5 22 01 
12:47:41:1543 Rx 1 0x779 s 8 17 01 02 5E 07 00 00 00 
12:47:41:1545 Rx 1 0x77A s 8 00 00 00 00 00 00 00 00 
12:47:41:2542 Rx 1 0x777 s 8 E0 09 B9 1F E5 1F 00 01 
12:47:41:2545 Rx 1 0x778 s 8 3B 64 BD 0A 80 B5 22 01 
12:47:41:3542 Rx 1 0x779 s 8 17 01 02 5E 07 00 00 00 
12:47:41:3544 Rx 1 0x77A s 8 00 00 00 00 00 00 00 00 
12:47:41:4541 Rx 1 0x777 s 8 7B 09 5E 20 E6 11 00 02 
12:47:41:4544 Rx 1 0x778 s 8 3B 64 38 0B 61 B5 22 01 
12:47:41:5542 Rx 1 0x779 s 8 18 01 02 5E 07 00 00 00 
12:47:41:5544 Rx 1 0x77A s 8 00 00 00 00 00 00 00 00 
12:47:41:6541 Rx 1 0x777 s 8 E2 09 EA 20 E6 17 00 02 
12:47:41:6544 Rx 1 0x778 s 8 3B 64 CE 0A DD B6 22 01 
12:47:41:7541 Rx 1 0x779 s 8 18 01 02 5E 07 00 00 00 
12:47:41:7544 Rx 1 0x77A s 8 00 00 00 00 00 00 00 00 
12:47:41:8543 Rx 1 0x777 s 8 15 09 2E 21 E6 0A 00 02 
12:47:41:8546 Rx 1 0x778 s 8 3B 64 8D 08 7C B7 22 01 
12:47:41:9542 Rx 1 0x779 s 8 18 01 02 5E 07 00 00 00 
12:47:41:9544 Rx 1 0x77A s 8 00 00 00 00 00 00 00 00 
12:47:42:0542 Rx 1 0x777 s 8 E1 06 7A 21 E6 06 00 02 
12:47:42:0544 Rx 1 0x778 s 8 3B 64 63 06 69 C0 22 01 
12:47:42:1541 Rx 1 0x779 s 8 19 01 02 5E 07 00 00 00 
12:47:42:1544 Rx 1 0x77A s 8 00 00 00 00 00 00 00 00 
12:47:42:2541 Rx 1 0x777 s 8 95 04 85 21 E6 14 00 02 
12:47:42:2544 Rx 1 0x778 s 8 3B 64 C7 04 32 BC 22 01 
12:47:42:3541 Rx 1 0x779 s 8 19 01 02 5E 07 00 00 00 
12:47:42:3543 Rx 1 0x77A s 8 00 00 00 00 00 00 00 00 
12:47:42:4542 Rx 1 0x777 s 8 80 03 63 21 E6 0B 00 02 
12:47:42:4545 Rx 1 0x778 s 8 3B 64 4C 03 40 BD 22 01 
12:47:42:5540 Rx 1 0x779 s 8 19 01 02 5E 07 00 00 00 
12:47:42:5544 Rx 1 0x77A s 8 00 00 00 00 00 00 00 00 
12:47:42:6541 Rx 1 0x777 s 8 64 02 5D 20 E6 08 00 02 
12:47:42:6544 Rx 1 0x778 s 8 3B 64 F5 01 08 C1 22 01 
12:47:42:7540 Rx 1 0x779 s 8 18 01 02 5E 07 00 00 00 
12:47:42:7544 Rx 1 0x77A s 8 00 00 00 00 00 00 00 00 
12:47:42:8541 Rx 1 0x777 s 8 F5 00 4C 20 E6 1A 00 02 
12:47:42:8544 Rx 1 0x778 s 8 3B 64 6C 00 83 C3 22 01 
12:47:42:9540 Rx 1 0x779 s 8 18 01 02 5E 07 00 00 00 
12:47:42:9544 Rx 1 0x77A s 8 00 00 00 00 00 00 00 00 
12:47:43:0540 Rx 1 0x777 s 8 A4 00 BC 20 E6 12 00 03 
12:47:43:0543 Rx 1 0x778 s 8 3B 64 49 00 63 C3 22 01 
12:47:43:1541 Rx 1 0x779 s 8 18 01 02 5E 07 00 00 00 
12:47:43:1544 Rx 1 0x77A s 8 00 00 00 00 00 00 00 00 
12:47:43:2540 Rx 1 0x777 s 8 1B 00 94 20 E6 0E 00 03 
12:47:43:2543 Rx 1 0x778 s 8 3B 64 A8 00 DD BE 22 01 
12:47:43:3539 Rx 1 0x779 s 8 18 01 02 5E 07 00 00 00 
12:47:43:3543 Rx 1 0x77A s 8 00 00 00 00 00 00 00 00 
12:47:43:4540 Rx 1 0x777 s 8 E4 FF 45 20 E6 23 00 03 
12:47:43:4543 Rx 1 0x778 s 8 3B 64 7D 00 AD BE 22 01 
12:47:43:5540 Rx 1 0x779 s 8 18 01 02 5E 07 00 00 00 
12:47:43:5543 Rx 1 0x77A s 8 00 00 00 00 00 00 00 00 
12:47:43:6540 Rx 1 0x777 s 8 44 00 72 21 E6 48 00 03 
12:47:43:6543 Rx 1 0x778 s 8 3B 64 27 00 50 BD 22 01 
12:47:43:7540 Rx 1 0x779 s 8 18 01 02 5E 07 00 00 00 
12:47:43:7543 Rx 1 0x77A s 8 00 00 00 00 00 00 00 00 
12:47:43:8540 Rx 1 0x777 s 8 D0 01 BA 20 E6 27 00 03 
12:47:43:8543 Rx 1 0x778 s 8 3B 64 E7 01 AF BD 22 01 
12:47:43:9539 Rx 1 0x779 s 8 18 01 02 5E 07 00 00 00 
12:47:43:9543 Rx 1 0x77A s 8 00 00 00 00 00 00 00 00 
12:47:44:0540 Rx 1 0x777 s 8 24 03 48 20 E6 2C 00 03 
12:47:44:0543 Rx 1 0x778 s 8 3B 64 8E 03 DF BD 22 01 
12:47:44:1540 Rx 1 0x779 s 8 18 01 02 5E 07 00 00 00 
12:47:44:1542 Rx 1 0x77A s 8 00 00 00 00 00 00 00 00 
12:47:44:2538 Rx 1 0x777 s 8 59 05 49 20 E6 24 00 03 
12:47:44:2541 Rx 1 0x778 s 8 3B 64 B0 04 B5 BA 22 01 
12:47:44:3538 Rx 1 0x779 s 8 18 01 02 5E 07 00 00 00 
12:47:44:3542 Rx 1 0x77A s 8 00 00 00 00 00 00 00 00 
12:47:44:4539 Rx 1 0x777 s 8 9E 05 84 20 E6 1A 00 03 
12:47:44:4542 Rx 1 0x778 s 8 3B 64 68 05 27 BA 22 01 
12:47:44:5539 Rx 1 0x779 s 8 18 01 02 5E 07 00 00 00 
12:47:44:5542 Rx 1 0x77A s 8 00 00 00 00 00 00 00 00 
12:47:44:6539 Rx 1 0x777 s 8 C5 05 DC 20 E6 3D 00 03 
12:47:44:6542 Rx 1 0x778 s 8 3B 64 00 06 AF BD 22 01 
12:47:44:7539 Rx 1 0x779 s 8 18 01 02 5E 07 00 00 00 
12:47:44:7541 Rx 1 0x77A s 8 00 00 00 00 00 00 00 00 
12:47:44:8539 Rx 1 0x777 s 8 17 06 20 21 E6 28 00 03 
12:47:44:8542 Rx 1 0x778 s 8 3B 64 49 06 9C B7 22 01 
12:47:44:9539 Rx 1 0x779 s 8 18 01 02 5E 07 00 00 00 
12:47:44:9542 Rx 1 0x77A s 8 00 00 00 00 00 00 00 00 
12:47:45:0539 Rx 1 0x777 s 8 FD 05 1D 21 E6 1F 00 03 
12:47:45:0542 Rx 1 0x778 s 8 3B 64 84 06 8A B8 22 01 
12:47:45:1539 Rx 1 0x779 s 8 18 01 02 5E 07 00 00 00 
12:47:45:1541 Rx 1 0x77A s 8 00 00 00 00 00 00 00 00 
12:47:45:2539 Rx 1 0x777 s 8 76 04 56 21 E6 27 00 03 
12:47:45:2542 Rx 1 0x778 s 8 3B 64 56 05 42 BC 22 01 
12:47:45:3538 Rx 1 0x779 s 8 18 01 02 5E 07 00 00 00 
12:47:45:3541 Rx 1 0x77A s 8 00 00 00 00 00 00 00 00 
12:47:45:4537 Rx 1 0x777 s 8 AB 04 70 21 E6 13 00 03 
12:47:45:4540 Rx 1 0x778 s 8 3B 64 3D 05 AA B8 22 01 
12:47:45:5538 Rx 1 0x779 s 8 19 01 02 5E 07 00 00 00 
12:47:45:5540 Rx 1 0x77A s 8 00 00 00 00 00 00 00 00 
12:47:45:6537 Rx 1 0x777 s 8 BC 03 7E 21 E6 2F 00 03 
12:47:45:6540 Rx 1 0x778 s 8 3B 64 13 04 01 BD 22 01 
12:47:45:7537 Rx 1 0x779 s 8 19 01 02 5E 07 00 00 00 
12:47:45:7541 Rx 1 0x77A s 8 00 00 00 00 00 00 00 00 
12:47:45:8539 Rx 1 0x777 s 8 3B 04 52 21 E6 33 00 03 
12:47:45:8542 Rx 1 0x778 s 8 3B 64 DD 03 D5 BA 22 01 
12:47:45:9538 Rx 1 0x779 s 8 19 01 02 5E 07 00 00 00 
12:47:45:9540 Rx 1 0x77A s 8 00 00 00 00 00 00 00 00 
12:47:46:0538 Rx 1 0x777 s 8 A3 03 87 21 E6 1A 00 03 
12:47:46:0541 Rx 1 0x778 s 8 3B 64 71 03 FE BD 22 01 
12:47:46:1537 Rx 1 0x779 s 8 19 01 02 5E 07 00 00 00 
12:47:46:1541 Rx 1 0x77A s 8 00 00 00 00 00 00 00 00 
12:47:46:2537 Rx 1 0x777 s 8 C5 03 B3 21 E6 2A 00 03 
12:47:46:2540 Rx 1 0x778 s 8 3B 64 A2 03 E7 B9 22 01 
12:47:46:3537 Rx 1 0x779 s 8 19 01 02 5E 07 00 00 00 
12:47:46:3539 Rx 1 0x77A s 8 00 00 00 00 00 00 00 00 
12:47:46:4538 Rx 1 0x777 s 8 83 03 A8 21 E6 13 00 03 
12:47:46:4541 Rx 1 0x778 s 8 3B 64 65 03 83 C3 22 01 
12:47:46:5536 Rx 1 0x779 s 8 19 01 02 5E 07 00 00 00 
12:47:46:5540 Rx 1 0x77A s 8 00 00 00 00 00 00 00 00 
12:47:46:6537 Rx 1 0x777 s 8 33 03 8E 21 E6 1B 00 03 
12:47:46:6540 Rx 1 0x778 s 8 3B 64 FA 02 60 BD 22 01 
12:47:46:7538 Rx 1 0x779 s 8 19 01 02 5E 07 00 00 00 
12:47:46:7540 Rx 1 0x77A s 8 00 00 00 00 00 00 00 00 
12:47:46:8537 Rx 1 0x777 s 8 51 03 7E 21 E6 2A 00 03 
12:47:46:8540 Rx 1 0x778 s 8 3B 64 DA 02 CD BE 22 01 
12:47:46:9536 Rx 1 0x779 s 8 19 01 02 5E 07 00 00 00 
12:47:46:9540 Rx 1 0x77A s 8 00 00 00 00 00 00 00 00 
12:47:47:0536 Rx 1 0x777 s 8 93 02 98 21 E6 20 00 03 
12:47:47:0539 Rx 1 0x778 s 8 3B 64 A7 03 D5 BA 22 01 
12:47:47:1537 Rx 1 0x779 s 8 19 01 02 5E 07 00 00 00 
12:47:47:1540 Rx 1 0x77A s 8 00 00 00 00 00 00 00 00 
12:47:47:2537 Rx 1 0x777 s 8 5F 03 95 21 E6 18 00 03 
12:47:47:2540 Rx 1 0x778 s 8 3B 64 5F 03 58 B9 22 01 
12:47:47:3537 Rx 1 0x779 s 8 19 01 02 5E 07 00 00 00 
12:47:47:3540 Rx 1 0x77A s 8 00 00 00 00 00 00 00 00 
12:47:47:4538 Rx 1 0x777 s 8 BB 03 82 21 E6 24 00 03 
12:47:47:4541 Rx 1 0x778 s 8 3B 64 30 03 B3 BB 22 01 
12:47:47:5537 Rx 1 0x779 s 8 19 01 02 5E 07 00 00 00 
12:47:47:5540 Rx 1 0x77A s 8 00 00 00 00 00 00 00 00 
12:47:47:6538 Rx 1 0x777 s 8 C4 02 7B 21 E6 1C 00 03 
12:47:47:6540 Rx 1 0x778 s 8 3B 64 31 03 BB BF 22 01 
12:47:47:7538 Rx 1 0x779 s 8 19 01 02 5E 07 00 00 00 
12:47:47:7540 Rx 1 0x77A s 8 00 00 00 00 00 00 00 00 
12:47:47:8538 Rx 1 0x777 s 8 F7 02 8F 21 E6 1B 00 03 
12:47:47:8541 Rx 1 0x778 s 8 3B 64 14 03 30 BD 22 01 
12:47:47:9537 Rx 1 0x779 s 8 19 01 02 5E 07 00 00 00 
12:47:47:9540 Rx 1 0x77A s 8 00 00 00 00 00 00 00 00 
12:47:48:0537 Rx 1 0x777 s 8 E9 03 94 21 E6 2E 00 03 
12:47:48:0541 Rx 1 0x778 s 8 3B 64 1D 03 7A B8 22 01 
12:47:48:1538 Rx 1 0x779 s 8 19 01 02 5E 07 00 00 00 
12:47:48:1540 Rx 1 0x77A s 8 00 00 00 00 00 00 00 00 
12:47:48:2538 Rx 1 0x777 s 8 6B 03 7F 21 E6 16 00 03 
12:47:48:2541 Rx 1 0x778 s 8 3B 64 E6 03 74 BB 22 01 
12:47:48:3539 Rx 1 0x779 s 8 19 01 02 5E 07 00 00 00 
12:47:48:3542 Rx 1 0x77A s 8 00 00 00 00 00 00 00 00 
12:47:48:4538 Rx 1 0x777 s 8 92 02 7D 21 E6 1C 00 03 
12:47:48:4541 Rx 1 0x778 s 8 3B 64 A0 03 0E BE 22 01 
12:47:48:5539 Rx 1 0x779 s 8 19 01 02 5E 07 00 00 00 
12:47:48:5541 Rx 1 0x77A s 8 00 00 00 00 00 00 00 00 
12:47:48:6538 Rx 1 0x777 s 8 2E 03 83 21 E6 21 00 03 
12:47:48:6541 Rx 1 0x778 s 8 3B 64 A4 03 10 BD 22 01 
12:47:48:7538 Rx 1 0x779 s 8 19 01 02 5E 07 00 00 00 
12:47:48:7541 Rx 1 0x77A s 8 00 00 00 00 00 00 00 00 
12:47:48:8538 Rx 1 0x777 s 8 29 03 6B 21 E6 0E 00 03 
12:47:48:8541 Rx 1 0x778 s 8 3B 64 57 03 F1 BC 22 01 
12:47:48:9538 Rx 1 0x779 s 8 19 01 02 5E 07 00 00 00 
12:47:48:9541 Rx 1 0x77A s 8 00 00 00 00 00 00 00 00 
12:47:49:0539 Rx 1 0x777 s 8 BC 03 42 21 E6 2C 00 03 
12:47:49:0541 Rx 1 0x778 s 8 3B 64 C6 03 EF BD 22 01 
12:47:49:1538 Rx 1 0x779 s 8 18 01 02 5E 07 00 00 00 
12:47:49:1541 Rx 1 0x77A s 8 00 00 00 00 00 00 00 00 
12:47:49:2540 Rx 1 0x777 s 8 FA 03 18 21 E6 2A 00 03 
12:47:49:2543 Rx 1 0x778 s 8 3B 64 6D 03 89 C0 22 01 
12:47:49:3540 Rx 1 0x779 s 8 18 01 02 5E 07 00 00 00 
12:47:49:3542 Rx 1 0x77A s 8 00 00 00 00 00 00 00 00 
12:47:49:4539 Rx 1 0x777 s 8 BF 04 16 21 E6 18 00 03 
12:47:49:4542 Rx 1 0x778 s 8 3B 64 E6 03 5A B8 22 01 
12:47:49:5539 Rx 1 0x779 s 8 18 01 02 5E 07 00 00 00 
12:47:49:5542 Rx 1 0x77A s 8 00 00 00 00 00 00 00 00 
12:47:49:6540 Rx 1 0x777 s 8 33 05 21 21 E6 21 00 03 
12:47:49:6543 Rx 1 0x778 s 8 3B 64 43 04 B5 BA 22 01 
12:47:49:7539 Rx 1 0x779 s 8 18 01 02 5E 07 00 00 00 
12:47:49:7543 Rx 1 0x77A s 8 00 00 00 00 00 00 00 00 
12:47:49:8539 Rx 1 0x777 s 8 E9 05 18 21 E6 1A 00 03 
12:47:49:8542 Rx 1 0x778 s 8 3B 64 39 04 09 B9 22 01 
12:47:49:9539 Rx 1 0x779 s 8 18 01 02 5E 07 00 00 00 
12:47:49:9543 Rx 1 0x77A s 8 00 00 00 00 00 00 00 00 
12:47:50:0539 Rx 1 0x777 s 8 1D 05 0F 21 E6 2A 00 03 
12:47:50:0542 Rx 1 0x778 s 8 3B 64 5E 04 94 BB 22 01 
12:47:50:1539 Rx 1 0x779 s 8 18 01 02 5E 07 00 00 00 
12:47:50:1542 Rx 1 0x77A s 8 00 00 00 00 00 00 00 00 
12:47:50:2541 Rx 1 0x777 s 8 5D 04 1E 21 E6 3F 00 03 
12:47:50:2544 Rx 1 0x778 s 8 3B 64 8B 04 D9 B8 22 01 
12:47:50:3540 Rx 1 0x779 s 8 18 01 02 5E 07 00 00 00 
12:47:50:3543 Rx 1 0x77A s 8 00 00 00 00 00 00 00 00 
12:47:50:4541 Rx 1 0x777 s 8 CB 03 03 21 E6 2D 00 03 
12:47:50:4544 Rx 1 0x778 s 8 3B 64 84 04 BA B8 22 01 
12:47:50:5540 Rx 1 0x779 s 8 18 01 02 5E 07 00 00 00 
12:47:50:5543 Rx 1 0x77A s 8 00 00 00 00 00 00 00 00 
12:47:50:6541 Rx 1 0x777 s 8 C1 03 FA 20 E6 22 00 03 
12:47:50:6544 Rx 1 0x778 s 8 3B 64 23 04 01 BD 22 01 
12:47:50:7541 Rx 1 0x779 s 8 18 01 02 5E 07 00 00 00 
12:47:50:7543 Rx 1 0x77A s 8 00 00 00 00 00 00 00 00 
12:47:50:8541 Rx 1 0x777 s 8 6F 03 FE 20 E6 2E 00 03 
12:47:50:8544 Rx 1 0x778 s 8 3B 64 B4 04 19 B9 22 01 
12:47:50:9541 Rx 1 0x779 s 8 18 01 02 5E 07 00 00 00 
12:47:50:9544 Rx 1 0x77A s 8 00 00 00 00 00 00 00 00 
12:47:51:0540 Rx 1 0x777 s 8 F6 03 06 21 E6 17 00 03 
12:47:51:0543 Rx 1 0x778 s 8 3B 64 6D 05 BA B8 22 01 
12:47:51:1541 Rx 1 0x779 s 8 18 01 02 5E 07 00 00 00 
12:47:51:1543 Rx 1 0x77A s 8 00 00 00 00 00 00 00 00 
12:47:51:2541 Rx 1 0x777 s 8 DE 02 33 21 E6 35 00 03 
12:47:51:2544 Rx 1 0x778 s 8 3B 64 30 05 34 BB 22 01 
12:47:51:3541 Rx 1 0x779 s 8 18 01 02 5E 07 00 00 00 
12:47:51:3544 Rx 1 0x77A s 8 00 00 00 00 00 00 00 00 
12:47:51:4542 Rx 1 0x777 s 8 C1 02 44 21 E6 32 00 03 
12:47:51:4545 Rx 1 0x778 s 8 3B 64 05 05 CC B7 22 01 
12:47:51:5542 Rx 1 0x779 s 8 18 01 02 5E 07 00 00 00 
12:47:51:5545 Rx 1 0x77A s 8 00 00 00 00 00 00 00 00 
12:47:51:6542 Rx 1 0x777 s 8 25 03 34 21 E6 20 00 03 
12:47:51:6545 Rx 1 0x778 s 8 3B 64 AC 04 91 BC 22 01 
12:47:51:7542 Rx 1 0x779 s 8 18 01 02 5E 07 00 00 00 
12:47:51:7544 Rx 1 0x77A s 8 00 00 00 00 00 00 00 00 
12:47:51:8542 Rx 1 0x777 s 8 B0 03 37 21 E6 2E 00 03 
12:47:51:8545 Rx 1 0x778 s 8 3B 64 41 04 18 C1 22 01 
12:47:51:9542 Rx 1 0x779 s 8 18 01 02 5E 07 00 00 00 
12:47:51:9545 Rx 1 0x77A s 8 00 00 00 00 00 00 00 00 
12:47:52:0542 Rx 1 0x777 s 8 DE 03 37 21 E6 17 00 03 
12:47:52:0545 Rx 1 0x778 s 8 3B 64 B7 04 88 B9 22 01 
12:47:52:1541 Rx 1 0x779 s 8 18 01 02 5E 07 00 00 00 
12:47:52:1544 Rx 1 0x77A s 8 00 00 00 00 00 00 00 00 
12:47:52:2543 Rx 1 0x777 s 8 76 04 39 21 E6 2E 00 03 
12:47:52:2546 Rx 1 0x778 s 8 3B 64 67 04 AA B8 22 01 
12:47:52:3543 Rx 1 0x779 s 8 18 01 02 5E 07 00 00 00 
12:47:52:3545 Rx 1 0x77A s 8 00 00 00 00 00 00 00 00 
12:47:52:4542 Rx 1 0x777 s 8 8F 04 27 21 E6 32 00 03 
12:47:52:4545 Rx 1 0x778 s 8 3B 64 1D 04 0B B8 22 01 
12:47:52:5543 Rx 1 0x779 s 8 18 01 02 5E 07 00 00 00 
12:47:52:5545 Rx 1 0x77A s 8 00 00 00 00 00 00 00 00 
12:47:52:6543 Rx 1 0x777 s 8 1A 05 35 21 E6 1D 00 03 
12:47:52:6546 Rx 1 0x778 s 8 3B 64 30 04 84 BB 22 01 
12:47:52:7542 Rx 1 0x779 s 8 18 01 02 5E 07 00 00 00 
12:47:52:7546 Rx 1 0x77A s 8 00 00 00 00 00 00 00 00 
12:47:52:8542 Rx 1 0x777 s 8 5B 05 32 21 E7 2D 00 03 
12:47:52:8545 Rx 1 0x778 s 8 3B 64 CF 03 BB BF 22 01 
12:47:52:9542 Rx 1 0x779 s 8 18 01 02 5E 07 00 00 00 
12:47:52:9545 Rx 1 0x77A s 8 00 00 00 00 00 00 00 00 
12:47:53:0543 Rx 1 0x777 s 8 A8 05 13 21 E7 16 00 03 
12:47:53:0545 Rx 1 0x778 s 8 3B 64 15 04 62 BC 22 01 
12:47:53:1542 Rx 1 0x779 s 8 18 01 02 5E 07 00 00 00 
12:47:53:1546 Rx 1 0x77A s 8 00 00 00 00 00 00 00 00 
12:47:53:2544 Rx 1 0x777 s 8 51 05 18 21 E7 1F 00 03 
12:47:53:2547 Rx 1 0x778 s 8 3B 64 83 04 7A B8 22 01 
12:47:53:3544 Rx 1 0x779 s 8 18 01 02 5E 07 00 00 00 
12:47:53:3546 Rx 1 0x77A s 8 00 00 00 00 00 00 00 00 
12:47:53:4545 Rx 1 0x777 s 8 08 05 30 21 E7 2C 00 03 
12:47:53:4548 Rx 1 0x778 s 8 3B 64 7F 04 8D BE 22 01 
12:47:53:5543 Rx 1 0x779 s 8 18 01 02 5E 07 00 00 00 
12:47:53:5546 Rx 1 0x77A s 8 00 00 00 00 00 00 00 00 
12:47:53:6544 Rx 1 0x777 s 8 56 05 41 21 E7 15 00 03 
12:47:53:6547 Rx 1 0x778 s 8 3B 64 E6 04 7C B7 22 01 
12:47:53:7543 Rx 1 0x779 s 8 18 01 02 5E 07 00 00 00 
12:47:53:7547 Rx 1 0x77A s 8 00 00 00 00 00 00 00 00 
12:47:53:8543 Rx 1 0x777 s 8 0E 05 39 21 E7 1A 00 03 
12:47:53:8546 Rx 1 0x778 s 8 3B 64 E9 04 36 BA 22 01 
12:47:53:9544 Rx 1 0x779 s 8 18 01 02 5E 07 00 00 00 
12:47:53:9546 Rx 1 0x77A s 8 00 00 00 00 00 00 00 00 
12:47:54:0544 Rx 1 0x777 s 8 02 05 1C 21 E7 1C 00 03 
12:47:54:0546 Rx 1 0x778 s 8 3B 64 6B 04 FC BE 22 01 
12:47:54:1544 Rx 1 0x779 s 8 18 01 02 5E 07 00 00 00 
12:47:54:1547 Rx 1 0x77A s 8 00 00 00 00 00 00 00 00 
12:47:54:2545 Rx 1 0x777 s 8 F8 02 23 21 E7 0A 00 02 
12:47:54:2548 Rx 1 0x778 s 8 3B 64 9F 04 C6 C1 22 01 
12:47:54:3544 Rx 1 0x779 s 8 18 01 02 5E 07 00 00 00 
12:47:54:3548 Rx 1 0x77A s 8 00 00 00 00 00 00 00 00 
12:47:54:4545 Rx 1 0x777 s 8 23 02 06 21 E7 0B 00 02 
12:47:54:4548 Rx 1 0x778 s 8 3B 64 68 04 82 BC 22 01 
12:47:54:5544 Rx 1 0x779 s 8 18 01 02 5E 07 00 00 00 
12:47:54:5548 Rx 1 0x77A s 8 00 00 00 00 00 00 00 00 
12:47:54:6545 Rx 1 0x777 s 8 23 02 F7 20 E7 0B 00 02 
12:47:54:6548 Rx 1 0x778 s 8 3B 64 68 04 4E BE 22 01 
12:47:54:7545 Rx 1 0x779 s 8 18 01 02 5E 07 00 00 00 
12:47:54:7548 Rx 1 0x77A s 8 00 00 00 00 00 00 00 00 
12:47:54:8545 Rx 1 0x777 s 8 F6 01 B8 20 E7 06 00 02 
12:47:54:8548 Rx 1 0x778 s 8 3B 64 DE 02 10 BD 22 01 
12:47:54:9545 Rx 1 0x779 s 8 18 01 02 5E 07 00 00 00 
12:47:54:9548 Rx 1 0x77A s 8 00 00 00 00 00 00 00 00 
12:47:55:0545 Rx 1 0x777 s 8 52 01 EC 1E E7 00 00 02 
12:47:55:0548 Rx 1 0x778 s 8 3B 64 D3 01 8D BE 22 01 
12:47:55:1545 Rx 1 0x779 s 8 17 01 02 5E 07 00 00 00 
12:47:55:1547 Rx 1 0x77A s 8 00 00 00 00 00 00 00 00 
12:47:55:2545 Rx 1 0x777 s 8 6E 00 8A 1F E7 05 00 02 
12:47:55:2548 Rx 1 0x778 s 8 3B 64 8E 00 2C BF 22 01 
12:47:55:3545 Rx 1 0x779 s 8 17 01 02 5E 07 00 00 00 
12:47:55:3549 Rx 1 0x77A s 8 00 00 00 00 00 00 00 00 
12:47:55:4546 Rx 1 0x777 s 8 32 00 A2 1F E7 08 00 01 
12:47:55:4549 Rx 1 0x778 s 8 3B 64 1D 00 02 C4 22 01 
12:47:55:5546 Rx 1 0x779 s 8 17 01 02 5E 07 00 00 00 
12:47:55:5549 Rx 1 0x77A s 8 00 00 00 00 00 00 00 00 
12:47:55:6546 Rx 1 0x777 s 8 F0 FF 45 1F E7 00 00 01 
12:47:55:6549 Rx 1 0x778 s 8 3B 64 49 00 DD BE 22 01 
12:47:55:7546 Rx 1 0x779 s 8 17 01 02 5E 07 00 00 00 
12:47:55:7549 Rx 1 0x77A s 8 00 00 00 00 00 00 00 00 
12:47:55:8546 Rx 1 0x777 s 8 CF FF D5 1E E7 03 00 01 
12:47:55:8549 Rx 1 0x778 s 8 3B 64 45 00 AB BF 22 01 
12:47:55:9546 Rx 1 0x779 s 8 17 01 02 5E 07 00 00 00 
12:47:55:9549 Rx 1 0x77A s 8 00 00 00 00 00 00 00 00 
12:47:56:0546 Rx 1 0x777 s 8 EF FF 8B 1E E7 02 00 01 
12:47:56:0549 Rx 1 0x778 s 8 3B 64 24 00 CB BF 22 01 
12:47:56:1546 Rx 1 0x779 s 8 16 01 02 5E 07 00 00 00 
12:47:56:1548 Rx 1 0x77A s 8 00 00 00 00 00 00 00 00 
12:47:56:2548 Rx 1 0x777 s 8 FA FF 35 1E E7 04 00 01 
12:47:56:2551 Rx 1 0x778 s 8 3B 64 0D 00 CB BF 22 01 
12:47:56:3547 Rx 1 0x779 s 8 16 01 02 5E 07 00 00 00 
12:47:56:3550 Rx 1 0x77A s 8 00 00 00 00 00 00 00 00 
12:47:56:4547 Rx 1 0x777 s 8 FE FF E8 1D E7 03 00 01 
12:47:56:4549 Rx 1 0x778 s 8 3B 64 0A 00 DA BF 22 01 
12:47:56:5547 Rx 1 0x779 s 8 16 01 02 5E 07 00 00 00 
12:47:56:5549 Rx 1 0x77A s 8 00 00 00 00 00 00 00 00 
12:47:56:6548 Rx 1 0x777 s 8 00 00 91 1D E7 00 00 01 
12:47:56:6551 Rx 1 0x778 s 8 3B 64 0C 00 DA BF 22 01 
12:47:56:7546 Rx 1 0x779 s 8 16 01 02 5E 07 00 00 00 
12:47:56:7550 Rx 1 0x77A s 8 00 00 00 00 00 00 00 00 
12:47:56:8548 Rx 1 0x777 s 8 00 00 35 1D E6 04 00 01 
12:47:56:8551 Rx 1 0x778 s 8 3B 64 10 00 DA BF 22 01 
12:47:56:9546 Rx 1 0x779 s 8 15 01 02 5E 07 00 00 00 
12:47:56:9550 Rx 1 0x77A s 8 00 00 00 00 00 00 00 00 
12:47:57:0547 Rx 1 0x777 s 8 00 00 E9 1C E6 02 00 01 
12:47:57:0549 Rx 1 0x778 s 8 3B 64 12 00 DA BF 22 01 
12:47:57:1546 Rx 1 0x779 s 8 15 01 02 5E 07 00 00 00 
12:47:57:1550 Rx 1 0x77A s 8 00 00 00 00 00 00 00 00 
12:47:57:2548 Rx 1 0x777 s 8 00 00 92 1C E6 00 00 01 
12:47:57:2551 Rx 1 0x778 s 8 3B 64 0D 00 FA BF 22 01 
12:47:57:3548 Rx 1 0x779 s 8 15 01 02 5E 07 00 00 00 
12:47:57:3550 Rx 1 0x77A s 8 00 00 01 00 00 00 00 00 
12:47:57:4549 Rx 1 0x777 s 8 A7 FF 1C 1C E6 01 00 01 
12:47:57:4552 Rx 1 0x778 s 8 3B 64 25 00 BB BF 22 01 
12:47:57:5548 Rx 1 0x779 s 8 15 01 02 5E 07 00 00 00 
12:47:57:5550 Rx 1 0x77A s 8 00 00 01 00 00 00 00 00 
12:47:57:6549 Rx 1 0x777 s 8 AD FF 94 1B E6 02 00 01 
12:47:57:6551 Rx 1 0x778 s 8 3B 64 E3 FF A7 C1 22 01 
12:47:57:7547 Rx 1 0x779 s 8 14 01 02 5E 07 00 00 00 
12:47:57:7551 Rx 1 0x77A s 8 00 00 01 00 00 00 00 00 
12:47:57:8547 Rx 1 0x777 s 8 56 FE E6 1A E6 08 00 01 
12:47:57:8550 Rx 1 0x778 s 8 3B 64 A8 FE F8 C0 22 01 
12:47:57:9548 Rx 1 0x779 s 8 14 01 02 5E 07 00 00 00 
12:47:57:9550 Rx 1 0x77A s 8 00 00 01 00 00 00 00 00 
12:47:58:0548 Rx 1 0x777 s 8 7E FD 41 1A E6 0C 00 01 
12:47:58:0550 Rx 1 0x778 s 8 3B 64 AE FD D4 C2 22 01 
12:47:58:1548 Rx 1 0x779 s 8 13 01 02 5E 07 00 00 00 
12:47:58:1551 Rx 1 0x77A s 8 00 00 01 00 00 00 00 00 
12:47:58:2548 Rx 1 0x777 s 8 53 FD 80 19 E6 0A 00 01 
12:47:58:2551 Rx 1 0x778 s 8 3B 64 3D FD 55 C2 22 01 
12:47:58:3548 Rx 1 0x779 s 8 13 01 02 5E 07 00 00 00 
12:47:58:3551 Rx 1 0x77A s 8 00 00 01 00 00 00 00 00 
12:47:58:4549 Rx 1 0x777 s 8 5C FD BD 18 E6 05 00 01 
12:47:58:4552 Rx 1 0x778 s 8 3B 64 46 FD E4 C2 22 01 
12:47:58:5549 Rx 1 0x779 s 8 12 01 02 5E 07 00 00 00 
12:47:58:5551 Rx 1 0x77A s 8 00 00 01 00 00 00 00 00 
12:47:58:6548 Rx 1 0x777 s 8 62 FD F7 17 E6 04 00 01 
12:47:58:6551 Rx 1 0x778 s 8 3B 64 7B FD A3 C3 22 01 
12:47:58:7548 Rx 1 0x779 s 8 11 01 02 5E 07 00 00 00 
12:47:58:7551 Rx 1 0x77A s 8 00 00 01 00 00 00 00 00 
12:47:58:8548 Rx 1 0x777 s 8 FC FC FC 16 E6 07 00 01 
12:47:58:8551 Rx 1 0x778 s 8 3B 64 41 FD 55 C2 22 01 
12:47:58:9549 Rx 1 0x779 s 8 11 01 02 5E 07 00 00 00 
12:47:58:9551 Rx 1 0x77A s 8 00 00 01 00 00 00 00 00 
12:47:59:0549 Rx 1 0x777 s 8 AF FD 3C 16 E6 0A 00 01 
12:47:59:0552 Rx 1 0x778 s 8 3B 64 71 FD A7 C1 22 01 
12:47:59:1549 Rx 1 0x779 s 8 10 01 02 5E 07 00 00 00 
12:47:59:1551 Rx 1 0x77A s 8 00 00 01 00 00 00 00 00 
12:47:59:2550 Rx 1 0x777 s 8 91 FD 84 15 E6 06 00 01 
12:47:59:2553 Rx 1 0x778 s 8 3B 64 D9 FD 97 C1 22 01 
12:47:59:3548 Rx 1 0x779 s 8 10 01 02 5E 07 00 00 00 
12:47:59:3552 Rx 1 0x77A s 8 00 00 01 00 00 00 00 00 
12:47:59:4549 Rx 1 0x777 s 8 AB FE 08 15 E6 02 00 01 
12:47:59:4552 Rx 1 0x778 s 8 3B 64 F4 FE 2A C0 22 01 
12:47:59:5549 Rx 1 0x779 s 8 0F 01 02 5E 07 00 00 00 
12:47:59:5552 Rx 1 0x77A s 8 00 00 01 00 00 00 00 00 
12:47:59:6549 Rx 1 0x777 s 8 2F FF AA 14 E6 03 00 01 
12:47:59:6552 Rx 1 0x778 s 8 3B 64 5F FF 28 C1 22 01 
12:47:59:7549 Rx 1 0x779 s 8 0F 01 02 5E 07 00 00 00 
12:47:59:7551 Rx 1 0x77A s 8 00 00 00 00 00 00 00 00 
12:47:59:8549 Rx 1 0x777 s 8 D9 FF 38 14 E6 01 00 01 
12:47:59:8552 Rx 1 0x778 s 8 3B 64 D8 FF 69 C0 22 01 
12:47:59:9549 Rx 1 0x779 s 8 0F 01 02 5E 07 00 00 00 
12:47:59:9552 Rx 1 0x77A s 8 00 00 01 00 00 00 00 00 
12:48:00:0549 Rx 1 0x777 s 8 6D FF 8A 13 E6 01 00 01 
12:48:00:0552 Rx 1 0x778 s 8 3B 64 DE FF 87 C1 22 01 
12:48:00:1549 Rx 1 0x779 s 8 0E 01 02 5E 07 00 00 00 
12:48:00:1551 Rx 1 0x77A s 8 00 00 01 00 00 00 00 00 
12:48:00:2547 Rx 1 0x777 s 8 B0 FE B5 12 E6 02 00 01 
12:48:00:2550 Rx 1 0x778 s 8 3B 64 1C FF F6 C1 22 01 
12:48:00:3548 Rx 1 0x779 s 8 0D 01 02 5E 07 00 00 00 
12:48:00:3551 Rx 1 0x77A s 8 00 00 01 00 00 00 00 00 
12:48:00:4548 Rx 1 0x777 s 8 48 FE CC 11 E6 01 00 01 
12:48:00:4551 Rx 1 0x778 s 8 3B 64 84 FE 16 C2 22 01 
12:48:00:5548 Rx 1 0x779 s 8 0D 01 02 5E 07 00 00 00 
12:48:00:5550 Rx 1 0x77A s 8 00 00 01 00 00 00 00 00 
12:48:00:6549 Rx 1 0x777 s 8 61 FE CF 10 E6 00 00 01 
12:48:00:6552 Rx 1 0x778 s 8 3B 64 76 FE 77 C1 22 01 
12:48:00:7547 Rx 1 0x779 s 8 0C 01 02 5E 07 00 00 00 
12:48:00:7551 Rx 1 0x77A s 8 00 00 01 00 00 00 00 00 
12:48:00:8549 Rx 1 0x777 s 8 83 FE CD 0F E6 00 00 01 
12:48:00:8552 Rx 1 0x778 s 8 3B 64 8B FE E6 C1 22 01 
12:48:00:9548 Rx 1 0x779 s 8 0B 01 02 5E 07 00 00 00 
12:48:00:9551 Rx 1 0x77A s 8 00 00 01 00 00 00 00 00 
12:48:01:0548 Rx 1 0x777 s 8 83 FE EF 0E E6 00 00 01 
12:48:01:0551 Rx 1 0x778 s 8 3B 64 8B FE A7 C1 22 01 
12:48:01:1549 Rx 1 0x779 s 8 0B 01 02 5E 07 00 00 00 
12:48:01:1551 Rx 1 0x77A s 8 00 00 01 00 00 00 00 00 
12:48:01:2549 Rx 1 0x777 s 8 0A FF 33 0E E6 00 00 01 
12:48:01:2551 Rx 1 0x778 s 8 3B 64 12 FF B9 C0 22 01 
12:48:01:3548 Rx 1 0x779 s 8 0A 01 02 5E 07 00 00 00 
12:48:01:3551 Rx 1 0x77A s 8 00 00 01 00 00 00 00 00 
12:48:01:4548 Rx 1 0x777 s 8 7B FF B1 0D E6 00 00 01 
12:48:01:4551 Rx 1 0x778 s 8 3B 64 93 FF A9 C0 22 01 
12:48:01:5548 Rx 1 0x779 s 8 0A 01 02 5E 07 00 00 00 
12:48:01:5551 Rx 1 0x77A s 8 00 00 00 00 00 00 00 00 
12:48:01:6549 Rx 1 0x777 s 8 D7 FF 30 0D E6 00 00 01 
12:48:01:6552 Rx 1 0x778 s 8 3B 64 E5 FF 89 C0 22 01 
12:48:01:7548 Rx 1 0x779 s 8 09 01 02 5E 07 00 00 00 
12:48:01:7551 Rx 1 0x77A s 8 00 00 00 00 00 00 00 00 
12:48:01:8548 Rx 1 0x777 s 8 F1 FF 92 0C E6 00 00 01 
12:48:01:8551 Rx 1 0x778 s 8 3B 64 08 00 99 C0 22 01 
12:48:01:9548 Rx 1 0x779 s 8 09 01 02 5E 07 00 00 00 
12:48:01:9551 Rx 1 0x77A s 8 00 00 00 00 00 00 00 00 
12:48:02:0548 Rx 1 0x777 s 8 F4 FF BA 0B E6 00 00 01 
12:48:02:0551 Rx 1 0x778 s 8 3B 64 11 00 D8 C0 22 01 
12:48:02:1548 Rx 1 0x779 s 8 08 01 02 5E 07 00 00 00 
12:48:02:1551 Rx 1 0x77A s 8 00 00 01 00 00 00 00 00 
12:48:02:2548 Rx 1 0x777 s 8 AE FF B6 0A E6 00 00 01 
12:48:02:2551 Rx 1 0x778 s 8 3B 64 EA FF 28 C1 22 01 
12:48:02:3548 Rx 1 0x779 s 8 07 01 02 5E 07 00 00 00 
12:48:02:3550 Rx 1 0x77A s 8 00 00 01 00 00 00 00 00 
12:48:02:4549 Rx 1 0x777 s 8 53 FF 68 09 E6 01 00 01 
12:48:02:4552 Rx 1 0x778 s 8 3B 64 8A FF 57 C1 22 01 
12:48:02:5548 Rx 1 0x779 s 8 06 01 02 5E 07 00 00 00 
12:48:02:5550 Rx 1 0x77A s 8 00 00 01 00 00 00 00 00 
12:48:02:6549 Rx 1 0x777 s 8 67 FF 8D 08 E6 01 00 01 
12:48:02:6552 Rx 1 0x778 s 8 3B 64 53 FF C9 C0 22 01 
12:48:02:7548 Rx 1 0x779 s 8 06 01 02 5E 07 00 00 00 
12:48:02:7551 Rx 1 0x77A s 8 00 00 00 00 00 00 00 00 
12:48:02:8549 Rx 1 0x777 s 8 CB FF A2 07 E6 02 00 01 
12:48:02:8552 Rx 1 0x778 s 8 3B 64 CD FF 89 C0 22 01 
12:48:02:9548 Rx 1 0x779 s 8 06 01 02 5E 07 00 00 00 
12:48:02:9551 Rx 1 0x77A s 8 00 00 00 00 00 00 00 00 
12:48:03:0548 Rx 1 0x777 s 8 1C 00 98 08 E6 02 00 01 
12:48:03:0551 Rx 1 0x778 s 8 3B 64 1B 00 59 C0 22 01 
12:48:03:1548 Rx 1 0x779 s 8 05 01 02 5E 07 00 00 00 
12:48:03:1550 Rx 1 0x77A s 8 00 00 00 00 00 00 00 00 
12:48:03:2549 Rx 1 0x777 s 8 4B 00 66 07 E6 04 00 01 
12:48:03:2552 Rx 1 0x778 s 8 3B 64 4C 00 79 C0 22 01 
12:48:03:3550 Rx 1 0x779 s 8 05 01 02 5E 07 00 00 00 
12:48:03:3552 Rx 1 0x77A s 8 00 00 00 00 00 00 00 00 
12:48:03:4549 Rx 1 0x777 s 8 9A 00 C8 06 E6 08 00 01 
12:48:03:4552 Rx 1 0x778 s 8 3B 64 8F 00 1A C0 22 01 
12:48:03:5550 Rx 1 0x779 s 8 05 01 02 5E 07 00 00 00 
12:48:03:5552 Rx 1 0x77A s 8 00 00 00 00 00 00 00 00 
12:48:03:6550 Rx 1 0x777 s 8 2B 01 91 06 E6 08 00 01 
12:48:03:6552 Rx 1 0x778 s 8 3B 64 ED 00 DA BF 22 01 
12:48:03:7549 Rx 1 0x779 s 8 04 01 02 5E 07 00 00 00 
12:48:03:7551 Rx 1 0x77A s 8 00 00 00 00 00 00 00 00 
12:48:03:8550 Rx 1 0x777 s 8 CE 01 B4 06 E6 05 00 01 
12:48:03:8553 Rx 1 0x778 s 8 3B 64 97 01 3C BF 22 01 
12:48:03:9548 Rx 1 0x779 s 8 05 01 02 5E 07 00 00 00 
12:48:03:9552 Rx 1 0x77A s 8 00 00 00 00 00 00 00 00 
12:48:04:0549 Rx 1 0x777 s 8 26 02 DD 06 E6 02 00 01 
12:48:04:0552 Rx 1 0x778 s 8 3B 64 15 02 4E BE 22 01 
12:48:04:1548 Rx 1 0x779 s 8 05 01 02 5E 07 00 00 00 
12:48:04:1552 Rx 1 0x77A s 8 00 00 00 00 00 00 00 00 
12:48:04:2550 Rx 1 0x777 s 8 74 02 3E 07 E6 00 00 01 
12:48:04:2552 Rx 1 0x778 s 8 3B 64 39 02 8D BE 22 01 
12:48:04:3548 Rx 1 0x779 s 8 05 01 02 5E 07 00 00 00 
12:48:04:3551 Rx 1 0x77A s 8 00 00 00 00 00 00 00 00 
12:48:04:4549 Rx 1 0x777 s 8 51 02 8E 07 E6 00 00 01 
12:48:04:4552 Rx 1 0x778 s 8 3B 64 2F 02 BD BE 22 01 
12:48:04:5548 Rx 1 0x779 s 8 05 01 02 5E 07 00 00 00 
12:48:04:5551 Rx 1 0x77A s 8 00 00 00 00 00 00 00 00 
12:48:04:6549 Rx 1 0x777 s 8 54 02 E9 07 E6 01 00 01 
12:48:04:6552 Rx 1 0x778 s 8 3B 64 1B 02 DD BE 22 01 
12:48:04:7548 Rx 1 0x779 s 8 05 01 02 5E 07 00 00 00 
12:48:04:7551 Rx 1 0x77A s 8 00 00 00 00 00 00 00 00 
12:48:04:8549 Rx 1 0x777 s 8 54 02 42 08 E6 01 00 01 
12:48:04:8552 Rx 1 0x778 s 8 3B 64 22 02 7D BE 22 01 
12:48:04:9549 Rx 1 0x779 s 8 06 01 02 5E 07 00 00 00 
12:48:04:9552 Rx 1 0x77A s 8 00 00 00 00 00 00 00 00 
12:48:05:0548 Rx 1 0x777 s 8 52 02 91 08 E6 00 00 01 
12:48:05:0551 Rx 1 0x778 s 8 3B 64 34 02 4E BE 22 01 
12:48:05:1549 Rx 1 0x779 s 8 06 01 02 5E 07 00 00 00 
12:48:05:1551 Rx 1 0x77A s 8 00 00 00 00 00 00 00 00 
12:48:05:2548 Rx 1 0x777 s 8 24 02 E5 08 E6 01 00 01 
12:48:05:2551 Rx 1 0x778 s 8 3B 64 20 02 FC BE 22 01 
12:48:05:3548 Rx 1 0x779 s 8 06 01 02 5E 07 00 00 00 
12:48:05:3552 Rx 1 0x77A s 8 00 00 00 00 00 00 00 00 
12:48:05:4549 Rx 1 0x777 s 8 A7 01 09 09 E6 02 00 01 
12:48:05:4552 Rx 1 0x778 s 8 3B 64 BE 01 5C BF 22 01 
12:48:05:5548 Rx 1 0x779 s 8 06 01 02 5E 07 00 00 00 
12:48:05:5551 Rx 1 0x77A s 8 00 00 00 00 00 00 00 00 
12:48:05:6549 Rx 1 0x777 s 8 D1 00 85 07 E6 01 00 01 
12:48:05:6552 Rx 1 0x778 s 8 3B 64 FD 00 69 C0 22 01 
12:48:05:7549 Rx 1 0x779 s 8 06 01 02 5E 07 00 00 00 
12:48:05:7551 Rx 1 0x77A s 8 00 00 00 00 00 00 00 00 
12:48:05:8549 Rx 1 0x777 s 8 4F 00 64 08 E6 00 00 01 
12:48:05:8552 Rx 1 0x778 s 8 3B 64 4B 00 79 C0 22 01 
12:48:05:9549 Rx 1 0x779 s 8 06 01 02 5E 07 00 00 00 
12:48:05:9552 Rx 1 0x77A s 8 00 00 00 00 00 00 00 00 
12:48:06:0548 Rx 1 0x777 s 8 1F 00 85 08 E6 01 00 01 
12:48:06:0551 Rx 1 0x778 s 8 3B 64 1B 00 79 C0 22 01 
12:48:06:1548 Rx 1 0x779 s 8 06 01 02 5E 07 00 00 00 
12:48:06:1551 Rx 1 0x77A s 8 00 00 00 00 00 00 00 00 
12:48:06:2548 Rx 1 0x777 s 8 0C 00 BA 08 E6 02 00 01 
12:48:06:2551 Rx 1 0x778 s 8 3B 64 19 00 69 C0 22 01 
12:48:06:3549 Rx 1 0x779 s 8 06 01 02 5E 07 00 00 00 
12:48:06:3551 Rx 1 0x77A s 8 00 00 00 00 00 00 00 00 
12:48:06:4548 Rx 1 0x777 s 8 1D 00 EC 08 E6 01 00 01 
12:48:06:4551 Rx 1 0x778 s 8 3B 64 30 00 59 C0 22 01 
12:48:06:5548 Rx 1 0x779 s 8 07 01 02 5E 07 00 00 00 
12:48:06:5551 Rx 1 0x77A s 8 00 00 00 00 00 00 00 00 
12:48:06:6549 Rx 1 0x777 s 8 42 00 32 09 E6 00 00 01 
12:48:06:6552 Rx 1 0x778 s 8 3B 64 6A 00 4A C0 22 01 
12:48:06:7548 Rx 1 0x779 s 8 06 01 02 5E 07 00 00 00 
12:48:06:7551 Rx 1 0x77A s 8 00 00 00 00 00 00 00 00 
12:48:06:8549 Rx 1 0x777 s 8 50 00 A1 08 E6 00 00 01 
12:48:06:8552 Rx 1 0x778 s 8 3B 64 7A 00 79 C0 22 01 
12:48:06:9548 Rx 1 0x779 s 8 06 01 02 5E 07 00 00 00 
12:48:06:9551 Rx 1 0x77A s 8 00 00 00 00 00 00 00 00 
12:48:07:0548 Rx 1 0x777 s 8 43 00 3E 08 E6 00 00 01 
12:48:07:0551 Rx 1 0x778 s 8 3B 64 67 00 69 C0 22 01 
12:48:07:1549 Rx 1 0x779 s 8 06 01 02 5E 07 00 00 00 
12:48:07:1552 Rx 1 0x77A s 8 00 00 00 00 00 00 00 00 
12:48:07:2549 Rx 1 0x777 s 8 2D 00 2B 07 E6 00 00 01 
12:48:07:2552 Rx 1 0x778 s 8 3B 64 53 00 89 C0 22 01 
12:48:07:3549 Rx 1 0x779 s 8 05 01 02 5E 07 00 00 00 
12:48:07:3551 Rx 1 0x77A s 8 00 00 00 00 00 00 00 00 
12:48:07:4550 Rx 1 0x777 s 8 10 00 10 07 E6 00 00 01 
12:48:07:4552 Rx 1 0x778 s 8 3B 64 27 00 99 C0 22 01 
12:48:07:5548 Rx 1 0x779 s 8 05 01 02 5E 07 00 00 00 
12:48:07:5551 Rx 1 0x77A s 8 00 00 00 00 00 00 00 00 
12:48:07:6549 Rx 1 0x777 s 8 06 00 2B 07 E6 00 00 01 
12:48:07:6552 Rx 1 0x778 s 8 3B 64 17 00 99 C0 22 01 
12:48:07:7548 Rx 1 0x779 s 8 05 01 02 5E 07 00 00 00 
12:48:07:7552 Rx 1 0x77A s 8 00 00 00 00 00 00 00 00 
12:48:07:8550 Rx 1 0x777 s 8 02 00 18 07 E6 00 00 01 
12:48:07:8552 Rx 1 0x778 s 8 3B 64 13 00 99 C0 22 01 
12:48:07:9548 Rx 1 0x779 s 8 05 01 02 5E 07 00 00 00 
12:48:07:9551 Rx 1 0x77A s 8 00 00 00 00 00 00 00 00 
12:48:08:0549 Rx 1 0x777 s 8 01 00 E4 06 E6 00 00 01 
12:48:08:0551 Rx 1 0x778 s 8 3B 64 12 00 A9 C0 22 01 
12:48:08:1549 Rx 1 0x779 s 8 05 01 02 5E 07 00 00 00 
12:48:08:1552 Rx 1 0x77A s 8 00 00 01 00 00 00 00 00 
12:48:08:2549 Rx 1 0x777 s 8 FC FF A0 06 E6 00 00 01 
12:48:08:2552 Rx 1 0x778 s 8 3B 64 0F 00 A9 C0 22 01 
12:48:08:3549 Rx 1 0x779 s 8 05 01 02 5E 07 00 00 00 
12:48:08:3552 Rx 1 0x77A s 8 00 00 01 00 00 00 00 00 
12:48:08:4549 Rx 1 0x777 s 8 E4 FF 65 06 E6 00 00 01 
12:48:08:4552 Rx 1 0x778 s 8 3B 64 04 00 C9 C0 22 01 
12:48:08:5549 Rx 1 0x779 s 8 04 01 02 5E 07 00 00 00 
12:48:08:5551 Rx 1 0x77A s 8 00 00 01 00 00 00 00 00 
12:48:08:6548 Rx 1 0x777 s 8 E0 FF FE 05 E6 00 00 01 
12:48:08:6551 Rx 1 0x778 s 8 3B 64 FD FF B9 C0 22 01 
12:48:08:7549 Rx 1 0x779 s 8 04 01 02 5E 07 00 00 00 
12:48:08:7551 Rx 1 0x77A s 8 00 00 01 00 00 00 00 00 
12:48:08:8549 Rx 1 0x777 s 8 EA FF C2 05 E6 00 00 01 
12:48:08:8551 Rx 1 0x778 s 8 3B 64 01 00 A9 C0 22 01 
12:48:08:9549 Rx 1 0x779 s 8 04 01 02 5E 07 00 00 00 
12:48:08:9551 Rx 1 0x77A s 8 00 00 01 00 00 00 00 00 
12:48:09:0549 Rx 1 0x777 s 8 E6 FF 5A 05 E6 00 00 01 
12:48:09:0552 Rx 1 0x778 s 8 3B 64 01 00 C9 C0 22 01 
12:48:09:1548 Rx 1 0x779 s 8 03 01 02 5E 07 00 00 00 
12:48:09:1551 Rx 1 0x77A s 8 00 00 01 00 00 00 00 00 
12:48:09:2549 Rx 1 0x777 s 8 E4 FF D6 04 E6 00 00 01 
12:48:09:2552 Rx 1 0x778 s 8 3B 64 00 00 D8 C0 22 01 
12:48:09:3548 Rx 1 0x779 s 8 03 01 02 5E 07 00 00 00 
12:48:09:3551 Rx 1 0x77A s 8 00 00 01 00 00 00 00 00 
12:48:09:4549 Rx 1 0x777 s 8 D7 FF E8 03 E6 00 00 01 
12:48:09:4552 Rx 1 0x778 s 8 3B 64 F9 FF E8 C0 22 01 
12:48:09:5549 Rx 1 0x779 s 8 02 01 02 5E 07 00 00 00 
12:48:09:5551 Rx 1 0x77A s 8 00 00 01 00 00 00 00 00 
12:48:09:6549 Rx 1 0x777 s 8 D9 FF C3 02 E6 00 00 01 
12:48:09:6551 Rx 1 0x778 s 8 3B 64 F3 FF D8 C0 22 01 
12:48:09:7549 Rx 1 0x779 s 8 01 01 02 5E 07 00 00 00 
12:48:09:7551 Rx 1 0x77A s 8 00 00 00 00 00 00 00 00 
12:48:09:8549 Rx 1 0x777 s 8 1E 00 64 01 E6 00 00 01 
12:48:09:8552 Rx 1 0x778 s 8 3B 64 08 00 79 C0 22 01 
12:48:09:9549 Rx 1 0x779 s 8 00 01 02 5E 07 00 00 00 
12:48:09:9552 Rx 1 0x77A s 8 00 00 00 00 00 00 00 00 
12:48:10:0548 Rx 1 0x777 s 8 1C 00 50 00 E6 00 00 01 
12:48:10:0551 Rx 1 0x778 s 8 3B 64 3A 00 B9 C0 22 01 
12:48:10:1549 Rx 1 0x779 s 8 00 01 02 5E 07 00 00 00 
12:48:10:1551 Rx 1 0x77A s 8 00 00 00 00 00 00 00 00 
12:48:10:2549 Rx 1 0x777 s 8 0A 00 0D 00 E6 00 00 01 
12:48:10:2552 Rx 1 0x778 s 8 3B 64 1A 00 C9 C0 22 01 
12:48:10:3549 Rx 1 0x779 s 8 00 01 02 5E 07 00 00 00 
12:48:10:3552 Rx 1 0x77A s 8 00 00 00 00 00 00 00 00 
12:48:10:4549 Rx 1 0x777 s 8 03 00 01 00 E6 00 00 01 
12:48:10:4552 Rx 1 0x778 s 8 3B 64 12 00 C9 C0 22 01 
12:48:10:5549 Rx 1 0x779 s 8 00 01 02 5E 07 00 00 00 
12:48:10:5552 Rx 1 0x77A s 8 00 00 00 00 00 00 00 00 
12:48:10:6550 Rx 1 0x777 s 8 01 00 00 00 E6 03 00 01 
12:48:10:6553 Rx 1 0x778 s 8 3B 64 0E 00 D8 C0 22 01 
12:48:10:7549 Rx 1 0x779 s 8 00 01 02 5E 07 00 00 00 
12:48:10:7552 Rx 1 0x77A s 8 00 00 00 00 00 00 00 00 
12:48:10:8550 Rx 1 0x777 s 8 00 00 00 00 E6 08 00 01 
12:48:10:8553 Rx 1 0x778 s 8 3B 64 07 00 D8 C0 22 01 
12:48:10:9549 Rx 1 0x779 s 8 00 01 02 5E 07 00 00 00 
12:48:10:9552 Rx 1 0x77A s 8 00 00 00 00 00 00 00 00 
12:48:11:0549 Rx 1 0x777 s 8 00 00 00 00 E6 07 00 01 
12:48:11:0552 Rx 1 0x778 s 8 3B 64 04 00 D8 C0 22 01 
12:48:11:1548 Rx 1 0x779 s 8 00 01 02 5E 07 00 00 00 
12:48:11:1552 Rx 1 0x77A s 8 00 00 00 00 00 00 00 00 
12:48:11:2548 Rx 1 0x777 s 8 00 00 FE FF E6 04 00 01 
12:48:11:2551 Rx 1 0x778 s 8 3B 64 08 00 D8 C0 22 01 
12:48:11:3548 Rx 1 0x779 s 8 00 01 02 5E 07 00 00 00 
12:48:11:3551 Rx 1 0x77A s 8 00 00 00 00 00 00 00 00 
12:48:11:4548 Rx 1 0x777 s 8 00 00 E7 FF E6 02 00 01 
12:48:11:4551 Rx 1 0x778 s 8 3B 64 0A 00 D8 C0 22 01 
12:48:11:5548 Rx 1 0x779 s 8 00 01 02 5E 07 00 00 00 
12:48:11:5551 Rx 1 0x77A s 8 00 00 00 00 00 00 00 00 
12:48:11:6549 Rx 1 0x777 s 8 00 00 F6 FF E6 01 00 01 
12:48:11:6552 Rx 1 0x778 s 8 3B 64 0A 00 D8 C0 22 01 
12:48:11:7548 Rx 1 0x779 s 8 00 01 02 5E 07 00 00 00 
12:48:11:7551 Rx 1 0x77A s 8 00 00 00 00 00 00 00 00 
12:48:11:8548 Rx 1 0x777 s 8 00 00 F5 FF E6 02 00 01 
12:48:11:8551 Rx 1 0x778 s 8 3B 64 0A 00 E8 C0 22 01 
12:48:11:9548 Rx 1 0x779 s 8 00 01 02 5E 07 00 00 00 
12:48:11:9551 Rx 1 0x77A s 8 00 00 00 00 00 00 00 00 
12:48:12:0548 Rx 1 0x777 s 8 00 00 FF FF E6 05 00 01 
12:48:12:0551 Rx 1 0x778 s 8 3B 64 06 00 F8 C0 22 01 
12:48:12:1549 Rx 1 0x779 s 8 00 01 02 5E 07 00 00 00 
12:48:12:1551 Rx 1 0x77A s 8 00 00 00 00 00 00 00 00 
12:48:12:2549 Rx 1 0x777 s 8 00 00 7D FE E6 07 00 01 
12:48:12:2552 Rx 1 0x778 s 8 3B 64 04 00 E8 C0 22 01 
12:48:12:3549 Rx 1 0x779 s 8 00 FF 02 5E 07 00 00 00 
12:48:12:3552 Rx 1 0x77A s 8 00 00 00 00 00 00 00 00 
12:48:12:4549 Rx 1 0x777 s 8 50 00 E5 FE E6 08 00 01 
12:48:12:4552 Rx 1 0x778 s 8 3B 64 3A 00 69 C0 22 01 
12:48:12:5549 Rx 1 0x779 s 8 00 01 02 5E 07 00 00 00 
12:48:12:5551 Rx 1 0x77A s 8 00 00 00 00 00 00 00 00 
12:48:12:6550 Rx 1 0x777 s 8 C0 00 FF FE E6 0F 00 01 
12:48:12:6553 Rx 1 0x778 s 8 3B 64 7A 00 2A C0 22 01 
12:48:12:7548 Rx 1 0x779 s 8 00 FF 02 5E 07 00 00 00 
12:48:12:7551 Rx 1 0x77A s 8 00 00 00 00 00 00 00 00 
12:48:12:8549 Rx 1 0x777 s 8 3C 01 89 FE E6 07 00 01 
12:48:12:8551 Rx 1 0x778 s 8 3B 64 19 01 EA BF 22 01 
12:48:12:9549 Rx 1 0x779 s 8 00 FF 02 5E 07 00 00 00 
12:48:12:9551 Rx 1 0x77A s 8 00 00 00 00 00 00 00 00 
12:48:13:0549 Rx 1 0x777 s 8 8A 01 EC FD E6 03 00 01 
12:48:13:0552 Rx 1 0x778 s 8 3B 64 5E 01 5C BF 22 01 
12:48:13:1548 Rx 1 0x779 s 8 00 FF 02 5E 07 00 00 00 
12:48:13:1551 Rx 1 0x77A s 8 00 00 00 00 00 00 00 00 
12:48:13:2550 Rx 1 0x777 s 8 BD 01 54 FD E6 04 00 01 
12:48:13:2553 Rx 1 0x778 s 8 3B 64 A3 01 CB BF 22 01 
12:48:13:3549 Rx 1 0x779 s 8 02 FF 02 5E 07 00 00 00 
12:48:13:3553 Rx 1 0x77A s 8 00 00 00 00 00 00 00 00 
12:48:13:4550 Rx 1 0x777 s 8 B2 01 CA FC E6 01 00 01 
12:48:13:4553 Rx 1 0x778 s 8 3B 64 B3 01 3C BF 22 01 
12:48:13:5550 Rx 1 0x779 s 8 02 FF 02 5E 07 00 00 00 
12:48:13:5553 Rx 1 0x77A s 8 00 00 00 00 00 00 00 00 
12:48:13:6550 Rx 1 0x777 s 8 7E 01 41 FC E6 03 00 01 
12:48:13:6553 Rx 1 0x778 s 8 3B 64 65 01 BB BF 22 01 
12:48:13:7550 Rx 1 0x779 s 8 02 FF 02 5E 07 00 00 00 
12:48:13:7553 Rx 1 0x77A s 8 00 00 00 00 00 00 00 00 
12:48:13:8550 Rx 1 0x777 s 8 4E 01 1D FC E6 05 00 01 
12:48:13:8553 Rx 1 0x778 s 8 3B 64 48 01 4A C0 22 01 
12:48:13:9549 Rx 1 0x779 s 8 02 FF 02 5E 07 00 00 00 
12:48:13:9553 Rx 1 0x77A s 8 00 00 00 00 00 00 00 00 
12:48:14:0549 Rx 1 0x777 s 8 6A 00 AF FD E6 02 00 01 
12:48:14:0552 Rx 1 0x778 s 8 3B 64 98 00 B9 C0 22 01 
12:48:14:1550 Rx 1 0x779 s 8 02 FF 02 5E 07 00 00 00 
12:48:14:1552 Rx 1 0x77A s 8 00 00 00 00 00 00 00 00 
12:48:14:2549 Rx 1 0x777 s 8 28 00 DD FC E6 00 00 01 
12:48:14:2552 Rx 1 0x778 s 8 3B 64 39 00 C9 C0 22 01 
12:48:14:3549 Rx 1 0x779 s 8 02 FF 02 5E 07 00 00 00 
12:48:14:3552 Rx 1 0x77A s 8 00 00 00 00 00 00 00 00 
12:48:14:4550 Rx 1 0x777 s 8 0E 00 99 FC E6 00 00 01 
12:48:14:4553 Rx 1 0x778 s 8 3B 64 1B 00 C9 C0 22 01 
12:48:14:5549 Rx 1 0x779 s 8 02 FF 02 5E 07 00 00 00 
12:48:14:5551 Rx 1 0x77A s 8 00 00 00 00 00 00 00 00 
12:48:14:6550 Rx 1 0x777 s 8 05 00 D6 FC E6 00 00 01 
12:48:14:6552 Rx 1 0x778 s 8 3B 64 11 00 D8 C0 22 01 
12:48:14:7548 Rx 1 0x779 s 8 02 FF 02 5E 07 00 00 00 
12:48:14:7552 Rx 1 0x77A s 8 00 00 00 00 00 00 00 00 
12:48:14:8550 Rx 1 0x777 s 8 03 00 06 FD E6 00 00 01 
12:48:14:8553 Rx 1 0x778 s 8 3B 64 0F 00 D8 C0 22 01 
12:48:14:9548 Rx 1 0x779 s 8 02 FF 02 5E 07 00 00 00 
12:48:14:9552 Rx 1 0x77A s 8 00 00 00 00 00 00 00 00 
12:48:15:0549 Rx 1 0x777 s 8 00 00 51 FD E6 00 00 01 
12:48:15:0552 Rx 1 0x778 s 8 3B 64 11 00 D8 C0 22 01 
12:48:15:1550 Rx 1 0x779 s 8 01 FF 02 5E 07 00 00 00 
12:48:15:1552 Rx 1 0x77A s 8 00 00 01 00 00 00 00 00 
12:48:15:2549 Rx 1 0x777 s 8 FD FF D7 FD E6 00 00 01 
12:48:15:2552 Rx 1 0x778 s 8 3B 64 13 00 D8 C0 22 01 
12:48:15:3550 Rx 1 0x779 s 8 00 FF 02 5E 07 00 00 00 
12:48:15:3552 Rx 1 0x77A s 8 00 00 01 00 00 00 00 00 
12:48:15:4549 Rx 1 0x777 s 8 FF FF A2 FE E6 00 00 01 
12:48:15:4552 Rx 1 0x778 s 8 3B 64 16 00 E8 C0 22 01 
12:48:15:5549 Rx 1 0x779 s 8 00 01 02 5E 07 00 00 00 
12:48:15:5552 Rx 1 0x77A s 8 00 00 00 00 00 00 00 00 
12:48:15:6550 Rx 1 0x777 s 8 00 00 8A FF E6 00 00 01 
12:48:15:6553 Rx 1 0x778 s 8 3B 64 1A 00 D8 C0 22 01 
12:48:15:7549 Rx 1 0x779 s 8 00 01 02 5E 07 00 00 00 
12:48:15:7552 Rx 1 0x77A s 8 00 00 00 00 00 00 00 00 
12:48:15:8549 Rx 1 0x777 s 8 00 00 ED FF E6 00 00 01 
12:48:15:8552 Rx 1 0x778 s 8 3B 64 17 00 E8 C0 22 01 
12:48:15:9549 Rx 1 0x779 s 8 00 01 02 5E 07 00 00 00 
12:48:15:9552 Rx 1 0x77A s 8 00 00 00 00 00 00 00 00 
12:48:16:0550 Rx 1 0x777 s 8 00 00 FE FF E6 02 00 01 
12:48:16:0552 Rx 1 0x778 s 8 3B 64 10 00 F8 C0 22 01 
12:48:16:1549 Rx 1 0x779 s 8 00 01 02 5E 07 00 00 00 
12:48:16:1552 Rx 1 0x77A s 8 00 00 00 00 00 00 00 00 
12:48:16:2550 Rx 1 0x777 s 8 00 00 00 00 E6 04 00 01 
12:48:16:2553 Rx 1 0x778 s 8 3B 64 0C 00 F8 C0 22 01 
12:48:16:3549 Rx 1 0x779 s 8 00 01 02 5E 07 00 00 00 
12:48:16:3552 Rx 1 0x77A s 8 00 00 00 00 00 00 00 00 
12:48:16:4549 Rx 1 0x777 s 8 00 00 5E 00 E6 09 00 01 
12:48:16:4552 Rx 1 0x778 s 8 3B 64 07 00 F8 C0 22 01 
12:48:16:5550 Rx 1 0x779 s 8 00 01 02 5E 07 00 00 00 
12:48:16:5552 Rx 1 0x77A s 8 00 00 00 00 00 00 00 00 
12:48:16:6549 Rx 1 0x777 s 8 05 00 83 00 E6 0D 00 01 
12:48:16:6552 Rx 1 0x778 s 8 3B 64 08 00 F8 C0 22 01 
12:48:16:7549 Rx 1 0x779 s 8 00 01 02 5E 07 00 00 00 
12:48:16:7552 Rx 1 0x77A s 8 00 00 00 00 00 00 00 00 
12:48:16:8549 Rx 1 0x777 s 8 38 00 82 00 E6 19 00 01 
12:48:16:8552 Rx 1 0x778 s 8 3B 64 10 00 79 C0 22 01 
12:48:16:9549 Rx 1 0x779 s 8 00 01 02 5E 07 00 00 00 
12:48:16:9552 Rx 1 0x77A s 8 00 00 00 00 00 00 00 00 
12:48:17:0550 Rx 1 0x777 s 8 A4 00 06 01 E6 0D 00 01 
12:48:17:0553 Rx 1 0x778 s 8 3B 64 84 00 1A C0 22 01 
12:48:17:1549 Rx 1 0x779 s 8 00 01 02 5E 07 00 00 00 
12:48:17:1552 Rx 1 0x77A s 8 00 00 00 00 00 00 00 00 
12:48:17:2548 Rx 1 0x777 s 8 32 01 C5 01 E6 00 00 01 
12:48:17:2551 Rx 1 0x778 s 8 3B 64 07 01 3A C0 22 01 
12:48:17:3548 Rx 1 0x779 s 8 00 01 02 5E 07 00 00 00 
12:48:17:3551 Rx 1 0x77A s 8 00 00 00 00 00 00 00 00 
12:48:17:4550 Rx 1 0x777 s 8 85 01 70 02 E6 01 00 01 
12:48:17:4553 Rx 1 0x778 s 8 3B 64 62 01 6B BF 22 01 
12:48:17:5548 Rx 1 0x779 s 8 01 01 02 5E 07 00 00 00 
12:48:17:5551 Rx 1 0x77A s 8 00 00 00 00 00 00 00 00 
12:48:17:6549 Rx 1 0x777 s 8 C4 01 44 03 E6 03 00 01 
12:48:17:6552 Rx 1 0x778 s 8 3B 64 A7 01 2C BF 22 01 
12:48:17:7548 Rx 1 0x779 s 8 02 01 02 5E 07 00 00 00 
12:48:17:7552 Rx 1 0x77A s 8 00 00 00 00 00 00 00 00 
12:48:17:8550 Rx 1 0x777 s 8 4F 02 28 04 E6 03 00 01 
12:48:17:8553 Rx 1 0x778 s 8 3B 64 1D 02 DD BE 22 01 
12:48:17:9548 Rx 1 0x779 s 8 03 01 02 5E 07 00 00 00 
12:48:17:9551 Rx 1 0x77A s 8 00 00 00 00 00 00 00 00 
12:48:18:0549 Rx 1 0x777 s 8 B4 02 16 05 E6 01 00 01 
12:48:18:0551 Rx 1 0x778 s 8 3B 64 69 02 DD BE 22 01 
12:48:18:1549 Rx 1 0x779 s 8 03 01 02 5E 07 00 00 00 
12:48:18:1552 Rx 1 0x77A s 8 00 00 00 00 00 00 00 00 
12:48:18:2548 Rx 1 0x777 s 8 A8 02 F6 05 E6 00 00 01 
12:48:18:2551 Rx 1 0x778 s 8 3B 64 86 02 EC BE 22 01 
12:48:18:3548 Rx 1 0x779 s 8 04 01 02 5E 07 00 00 00 
12:48:18:3551 Rx 1 0x77A s 8 00 00 00 00 00 00 00 00 
12:48:18:4547 Rx 1 0x777 s 8 9C 02 C2 06 E6 01 00 01 
12:48:18:4550 Rx 1 0x778 s 8 3B 64 77 02 AD BE 22 01 
12:48:18:5548 Rx 1 0x779 s 8 05 01 02 5E 07 00 00 00 
12:48:18:5550 Rx 1 0x77A s 8 00 00 00 00 00 00 00 00 
12:48:18:6549 Rx 1 0x777 s 8 A0 02 6D 07 E6 00 00 01 
12:48:18:6551 Rx 1 0x778 s 8 3B 64 67 02 9D BE 22 01 
12:48:18:7547 Rx 1 0x779 s 8 05 01 02 5E 07 00 00 00 
12:48:18:7551 Rx 1 0x77A s 8 00 00 00 00 00 00 00 00 
12:48:18:8549 Rx 1 0x777 s 8 93 02 14 08 E6 09 00 01 
12:48:18:8552 Rx 1 0x778 s 8 3B 64 5B 02 CF BD 22 01 
12:48:18:9547 Rx 1 0x779 s 8 06 01 02 5E 07 00 00 00 
12:48:18:9550 Rx 1 0x77A s 8 00 00 00 00 00 00 00 00 
12:48:19:0548 Rx 1 0x777 s 8 EC 02 FC 08 E6 10 00 01 
12:48:19:0551 Rx 1 0x778 s 8 3B 64 7E 02 40 BD 22 01 
12:48:19:1547 Rx 1 0x779 s 8 06 01 02 5E 07 00 00 00 
12:48:19:1551 Rx 1 0x77A s 8 00 00 00 00 00 00 00 00 
12:48:19:2549 Rx 1 0x777 s 8 1C 04 11 0A E6 10 00 01 
12:48:19:2552 Rx 1 0x778 s 8 3B 64 CA 03 03 BC 22 01 
12:48:19:3549 Rx 1 0x779 s 8 07 01 02 5E 07 00 00 00 
12:48:19:3552 Rx 1 0x77A s 8 00 00 00 00 00 00 00 00 
12:48:19:4549 Rx 1 0x777 s 8 63 05 24 0B E6 05 00 01 
12:48:19:4552 Rx 1 0x778 s 8 3B 64 C0 04 03 BC 22 01 
12:48:19:5549 Rx 1 0x779 s 8 08 01 02 5E 07 00 00 00 
12:48:19:5552 Rx 1 0x77A s 8 00 00 00 00 00 00 00 00 
12:48:19:6549 Rx 1 0x777 s 8 99 05 35 0C E6 0D 00 01 
12:48:19:6552 Rx 1 0x778 s 8 3B 64 1D 05 C3 BB 22 01 
12:48:19:7549 Rx 1 0x779 s 8 09 01 02 5E 07 00 00 00 
12:48:19:7551 Rx 1 0x77A s 8 00 00 00 00 00 00 00 00 
12:48:19:8549 Rx 1 0x777 s 8 0D 06 40 0D E6 13 00 01 
12:48:19:8552 Rx 1 0x778 s 8 3B 64 A7 05 48 B9 22 01 
12:48:19:9549 Rx 1 0x779 s 8 0A 01 02 5E 07 00 00 00 
12:48:19:9552 Rx 1 0x77A s 8 00 00 00 00 00 00 00 00 
12:48:20:0549 Rx 1 0x777 s 8 70 07 5B 0E E6 0B 00 01 
12:48:20:0552 Rx 1 0x778 s 8 3B 64 A7 06 F7 B9 22 01 
12:48:20:1549 Rx 1 0x779 s 8 0A 01 02 5E 07 00 00 00 
12:48:20:1551 Rx 1 0x77A s 8 00 00 00 00 00 00 00 00 
12:48:20:2551 Rx 1 0x777 s 8 76 07 64 0F E6 01 00 01 
12:48:20:2554 Rx 1 0x778 s 8 3B 64 51 07 34 BB 22 01 
12:48:20:3549 Rx 1 0x779 s 8 0B 01 02 5E 07 00 00 00 
12:48:20:3553 Rx 1 0x77A s 8 00 00 00 00 00 00 00 00 
12:48:20:4550 Rx 1 0x777 s 8 88 07 4B 10 E6 07 00 01 
12:48:20:4553 Rx 1 0x778 s 8 3B 64 F2 06 88 B9 22 01 
12:48:20:5550 Rx 1 0x779 s 8 0C 01 02 5E 07 00 00 00 
12:48:20:5553 Rx 1 0x77A s 8 00 00 00 00 00 00 00 00 
12:48:20:6550 Rx 1 0x777 s 8 EF 07 4B 11 E7 0D 00 01 
12:48:20:6555 Rx 1 0x778 s 8 3A 64 1E 07 6A B8 22 01 
12:48:20:7550 Rx 1 0x779 s 8 0D 01 02 5E 07 00 00 00 
12:48:20:7552 Rx 1 0x77A s 8 00 00 00 00 00 00 00 00 
12:48:20:8550 Rx 1 0x777 s 8 15 08 4F 12 E7 07 00 01 
12:48:20:8553 Rx 1 0x778 s 8 3A 64 B1 07 0B B8 22 01 
12:48:20:9550 Rx 1 0x779 s 8 0D 01 02 5E 07 00 00 00 
12:48:20:9553 Rx 1 0x77A s 8 00 00 00 00 00 00 00 00 
12:48:21:0550 Rx 1 0x777 s 8 10 08 3A 13 E7 00 00 01 
12:48:21:0553 Rx 1 0x778 s 8 3A 64 C0 07 AA B8 22 01 
12:48:21:1550 Rx 1 0x779 s 8 0E 01 02 5E 07 00 00 00 
12:48:21:1552 Rx 1 0x77A s 8 00 00 00 00 00 00 00 00 
12:48:21:2550 Rx 1 0x777 s 8 73 07 0F 14 E7 0B 00 01 
12:48:21:2553 Rx 1 0x778 s 8 3A 64 1B 07 1B B8 22 01 
12:48:21:3549 Rx 1 0x779 s 8 0E 01 02 5E 07 00 00 00 
12:48:21:3552 Rx 1 0x77A s 8 00 00 00 00 00 00 00 00 
12:48:21:4550 Rx 1 0x777 s 8 0D 08 E0 14 E7 11 00 01 
12:48:21:4553 Rx 1 0x778 s 8 3A 64 DE 06 1B B8 22 01 
12:48:21:5549 Rx 1 0x779 s 8 0F 01 02 5E 07 00 00 00 
12:48:21:5552 Rx 1 0x77A s 8 00 00 00 00 00 00 00 00 
12:48:21:6552 Rx 1 0x777 s 8 20 08 C4 15 E7 08 00 01 
12:48:21:6555 Rx 1 0x778 s 8 3A 64 4B 08 C7 B9 22 01 
12:48:21:7549 Rx 1 0x779 s 8 10 01 02 5E 07 00 00 00 
12:48:21:7552 Rx 1 0x77A s 8 00 00 00 00 00 00 00 00 
12:48:21:8549 Rx 1 0x777 s 8 36 07 85 16 E7 00 00 01 
12:48:21:8552 Rx 1 0x778 s 8 3A 64 6B 08 8A B8 22 01 
12:48:21:9550 Rx 1 0x779 s 8 10 01 02 5E 07 00 00 00 
12:48:21:9552 Rx 1 0x77A s 8 00 00 00 00 00 00 00 00 
12:48:22:0549 Rx 1 0x777 s 8 6C 07 3B 17 E7 05 00 01 
12:48:22:0552 Rx 1 0x778 s 8 3A 64 B5 07 DB B7 22 01 
12:48:22:1549 Rx 1 0x779 s 8 11 01 02 5E 07 00 00 00 
12:48:22:1552 Rx 1 0x77A s 8 00 00 00 00 00 00 00 00 
12:48:22:2549 Rx 1 0x777 s 8 95 06 B8 17 E7 0A 00 01 
12:48:22:2552 Rx 1 0x778 s 8 3A 64 42 07 B3 BB 22 01 
12:48:22:3549 Rx 1 0x779 s 8 11 01 02 5E 07 00 00 00 
12:48:22:3552 Rx 1 0x77A s 8 00 00 00 00 00 00 00 00 
12:48:22:4550 Rx 1 0x777 s 8 5B 06 3F 18 E7 10 00 01 
12:48:22:4553 Rx 1 0x778 s 8 3A 64 0A 06 24 BB 22 01 
12:48:22:5549 Rx 1 0x779 s 8 12 01 02 5E 07 00 00 00 
12:48:22:5552 Rx 1 0x77A s 8 00 00 00 00 00 00 00 00 
12:48:22:6552 Rx 1 0x777 s 8 C4 05 A6 18 E7 05 00 01 
12:48:22:6555 Rx 1 0x778 s 8 3A 64 A7 05 03 BC 22 01 
12:48:22:7550 Rx 1 0x779 s 8 12 01 02 5E 07 00 00 00 
12:48:22:7552 Rx 1 0x77A s 8 00 00 00 00 00 00 00 00 
12:48:22:8550 Rx 1 0x777 s 8 0C 05 E0 18 E7 06 00 01 
12:48:22:8553 Rx 1 0x778 s 8 3A 64 11 05 76 BA 22 01 
12:48:22:9550 Rx 1 0x779 s 8 12 01 02 5E 07 00 00 00 
12:48:22:9552 Rx 1 0x77A s 8 00 00 00 00 00 00 00 00 
12:48:23:0549 Rx 1 0x777 s 8 7D 03 02 19 E7 1B 00 01 
12:48:23:0552 Rx 1 0x778 s 8 3A 64 B3 03 3A C0 22 01 
12:48:23:1550 Rx 1 0x779 s 8 12 01 02 5E 07 00 00 00 
12:48:23:1552 Rx 1 0x77A s 8 00 00 00 00 00 00 00 00 
12:48:23:2549 Rx 1 0x777 s 8 29 04 77 19 E7 22 00 01 
12:48:23:2552 Rx 1 0x778 s 8 3A 64 CA 03 68 B9 22 01 
12:48:23:3549 Rx 1 0x779 s 8 13 01 02 5E 07 00 00 00 
12:48:23:3552 Rx 1 0x77A s 8 00 00 00 00 00 00 00 00 
12:48:23:4549 Rx 1 0x777 s 8 70 07 17 1A E7 0C 00 01 
12:48:23:4552 Rx 1 0x778 s 8 3A 64 AD 06 AC B7 22 01 
12:48:23:5549 Rx 1 0x779 s 8 13 01 02 5E 07 00 00 00 
12:48:23:5552 Rx 1 0x77A s 8 00 00 00 00 00 00 00 00 
12:48:23:6552 Rx 1 0x777 s 8 70 07 C6 1A E7 0C 00 02 
12:48:23:6554 Rx 1 0x778 s 8 3A 64 AD 06 F2 B4 22 01 
12:48:23:7549 Rx 1 0x779 s 8 14 01 02 5E 07 00 00 00 
12:48:23:7552 Rx 1 0x77A s 8 00 00 00 00 00 00 00 00 
12:48:23:8549 Rx 1 0x777 s 8 82 09 98 1B E7 14 00 02 
12:48:23:8552 Rx 1 0x778 s 8 3A 64 AF 09 FF B5 22 01 
12:48:23:9549 Rx 1 0x779 s 8 14 01 02 5E 07 00 00 00 
12:48:23:9552 Rx 1 0x77A s 8 00 00 00 00 00 00 00 00 
12:48:24:0550 Rx 1 0x777 s 8 0A 09 5D 1C E7 02 00 02 
12:48:24:0553 Rx 1 0x778 s 8 3A 64 F6 09 CC B7 22 01 
12:48:24:1549 Rx 1 0x779 s 8 15 01 02 5E 07 00 00 00 
12:48:24:1552 Rx 1 0x77A s 8 00 00 00 00 00 00 00 00 
12:48:24:2550 Rx 1 0x777 s 8 8A 08 C0 1C E8 01 00 02 
12:48:24:2553 Rx 1 0x778 s 8 3A 64 A3 09 A8 B9 22 01 
12:48:24:3549 Rx 1 0x779 s 8 15 01 02 5E 07 00 00 00 
12:48:24:3553 Rx 1 0x77A s 8 00 00 00 00 00 00 00 00 
12:48:24:4550 Rx 1 0x777 s 8 BB 04 FD 1C E8 18 00 02 
12:48:24:4553 Rx 1 0x778 s 8 3A 64 A2 05 0A C0 22 01 
12:48:24:5550 Rx 1 0x779 s 8 15 01 02 5E 07 00 00 00 
12:48:24:5553 Rx 1 0x77A s 8 00 00 00 00 00 00 00 00 
12:48:24:6552 Rx 1 0x777 s 8 7B 04 3B 1D E8 0F 00 02 
12:48:24:6555 Rx 1 0x778 s 8 3A 64 D8 03 52 BC 22 01 
12:48:24:7550 Rx 1 0x779 s 8 15 01 02 5E 07 00 00 00 
12:48:24:7552 Rx 1 0x77A s 8 00 00 00 00 00 00 00 00 
12:48:24:8550 Rx 1 0x777 s 8 DE 03 27 1D E8 04 00 02 
12:48:24:8553 Rx 1 0x778 s 8 3A 64 E3 02 B5 BA 22 01 
12:48:24:9550 Rx 1 0x779 s 8 15 01 02 5E 07 00 00 00 
12:48:24:9552 Rx 1 0x77A s 8 00 00 00 00 00 00 00 00 
12:48:25:0551 Rx 1 0x777 s 8 81 02 15 1D E8 0D 00 02 
12:48:25:0554 Rx 1 0x778 s 8 3A 64 3D 02 50 BD 22 01 
12:48:25:1549 Rx 1 0x779 s 8 15 01 02 5E 07 00 00 00 
